(1779393555.305175) can0 00C#
(1779393555.325742) can0 00E#B68021AE00000000
(1779393555.326104) can0 7B3#
(1779393555.363199) can0 1E840000#
(1779393555.363928) can0 1E850000#
(1779393555.364482) can0 1E863D16#
(1779393555.365055) can0 1E870006#
(1779393555.365446) can0 7B3#
(1779393555.375756) can0 00E#B68021AE00000000
(1779393555.376708) can0 7B3#
(1779393555.405183) can0 7B3#
(1779393555.425723) can0 00E#B68021AE00000000
(1779393555.426246) can0 7B3#R
(1779393555.444259) can0 1F00DA2C#R
(1779393555.444877) can0 1F103085#R
(1779393555.445484) can0 1F20E11C#R
(1779393555.446096) can0 1F3055A4#R
(1779393555.446762) can0 1F403600#R
(1779393555.447441) can0 1F502000#R
(1779393555.448058) can0 1F607900#R
(1779393555.448681) can0 1F704500#R
(1779393555.449306) can0 1F01DAB6#
(1779393555.449905) can0 1F113080#
(1779393555.450500) can0 1F21E121#
(1779393555.451086) can0 1F3155AE#
(1779393555.451701) can0 1F413600#
(1779393555.452322) can0 1F512000#
(1779393555.452921) can0 1F617900#
(1779393555.453530) can0 1F714500#
(1779393555.454477) can0 1F02DAE7#
(1779393555.455159) can0 1F123051#
(1779393555.455835) can0 1F22E101#
(1779393555.456525) can0 1F325500#
(1779393555.457191) can0 1F423603#
(1779393555.457874) can0 1F522050#
(1779393555.458559) can0 1F627902#
(1779393555.459246) can0 1F724501#
(1779393555.475750) can0 00E#B68021AE00000000
(1779393555.525745) can0 00E#B68021AE00000000
(1779393555.565536) can0 1E80BEA7#
(1779393555.566292) can0 1E840000#
(1779393555.566867) can0 1E850000#
(1779393555.567435) can0 1E863D16#
(1779393555.568000) can0 1E870006#
(1779393555.575770) can0 00E#B68021AE00000000
(1779393555.625781) can0 00E#B68021AE00000000
(1779393555.635175) can0 7B1#
(1779393555.675815) can0 00E#B68021AE00000000
(1779393555.685459) can0 7B0#
(1779393555.705115) can0 1C0C0000#64
(1779393555.725751) can0 00E#B68021AE00000000
(1779393555.767916) can0 1C2C0100#2D390C95051A
(1779393555.775804) can0 00E#B68021AE00000000
(1779393555.795418) can0 1C240101#
(1779393555.801824) can0 03C30F0F#87878787878787
(1779393555.825776) can0 00E#B68021AE00000000
(1779393555.875799) can0 00E#B68021AE00000000
(1779393555.901850) can0 03C30F0F#87878787878787
(1779393555.925788) can0 00E#B68021AE00000000
(1779393555.945206) can0 140C0001#0000
(1779393555.975825) can0 00E#B68021AE00000000
(1779393556.001877) can0 03C30F0F#87878787878787
(1779393556.025805) can0 00E#B68021AE00000000
(1779393556.064617) can0 050#C000FF00
(1779393556.065425) can0 050#D000FF02
(1779393556.066151) can0 050#F000FF01
(1779393556.066906) can0 0C280000#00
(1779393556.067577) can0 0C140000#C0
(1779393556.068214) can0 0C140000#C1
(1779393556.074625) can0 040#00000000
(1779393556.075825) can0 00E#B68021AE00000000
(1779393556.076800) can0 781#2080000011000000
(1779393556.077927) can0 790#4180000000000000
(1779393556.078978) can0 781#4080000000000000
(1779393556.080090) can0 790#2180000011000000
(1779393556.081136) can0 781#2081000006000100
(1779393556.101875) can0 03C30F0F#87878787878787
(1779393556.117142) can0 790#4181000000000000
(1779393556.118169) can0 781#408F000000000000
(1779393556.119306) can0 790#218F00008DDF0000
(1779393556.120557) can0 781#2081000002000000
(1779393556.122135) can0 790#4181000000000000
(1779393556.123168) can0 781#408F000000000000
(1779393556.124279) can0 790#218F0000BDF00000
(1779393556.125549) can0 781#2081000008000100
(1779393556.126520) can0 00E#B68021AE00000000
(1779393556.127502) can0 790#4181000000000000
(1779393556.128544) can0 781#408F000000000000
(1779393556.129661) can0 790#218F000006230000
(1779393556.130935) can0 781#208100000A000100
(1779393556.175819) can0 00E#B68021AE00000000
(1779393556.197243) can0 790#4181000000000000
(1779393556.198259) can0 781#408F000000000000
(1779393556.199353) can0 790#218F0000F53B0000
(1779393556.200507) can0 781#2081000003000000
(1779393556.201844) can0 03C30F0F#87878787878787
(1779393556.206259) can0 790#4181000000000000
(1779393556.207303) can0 781#408C000004000000
(1779393556.208454) can0 790#218C0000F6FF0100
(1779393556.209492) can0 781#2085000008000000
(1779393556.210620) can0 790#4185000000000000
(1779393556.211663) can0 781#408C000004000000
(1779393556.212816) can0 790#218C000009088140
(1779393556.214221) can0 781#408C000001000000
(1779393556.215385) can0 790#218C000003000000
(1779393556.216441) can0 781#208100000A000100
(1779393556.217911) can0 790#4181000000000000
(1779393556.218951) can0 781#408A000000000000
(1779393556.220081) can0 790#218A000030000000
(1779393556.224392) can0 781#208100000B000100
(1779393556.225802) can0 00E#B68021AE00000000
(1779393556.275833) can0 00E#B68021AE00000000
(1779393556.282203) can0 78F#40C1000002000001
(1779393556.301896) can0 03C30F0F#87878787878787
(1779393556.320717) can0 790#4181000000000000
(1779393556.321817) can0 790#2FC1000000000000
(1779393556.322796) can0 781#408F000000000000
(1779393556.323882) can0 790#218F000009670000
(1779393556.325810) can0 00E#B68021AE00000000
(1779393556.326777) can0 78F#40C7000002000001
(1779393556.327763) can0 781#408A000000000000
(1779393556.328738) can0 790#2FC7000001000000
(1779393556.329852) can0 790#218A000030000000
(1779393556.333671) can0 781#2081000019000100
(1779393556.336295) can0 78F#40C8000004000001
(1779393556.375849) can0 00E#B68021AE00000000
(1779393556.401913) can0 03C30F0F#87878787878787
(1779393556.425837) can0 00E#B68021AE00000000
(1779393556.429798) can0 790#4181000000000000
(1779393556.430823) can0 781#408F000000000000
(1779393556.431775) can0 790#2FC800002C851CA4
(1779393556.432861) can0 790#218F0000140F0000
(1779393556.434496) can0 781#208100000C000100
(1779393556.437064) can0 78F#40C9000004000001
(1779393556.475861) can0 00E#B68021AE00000000
(1779393556.481792) can0 790#4181000000000000
(1779393556.482818) can0 781#408F000000000000
(1779393556.483810) can0 790#2FC9000000000000
(1779393556.484946) can0 790#218F000032E40000
(1779393556.488307) can0 781#408A000000000000
(1779393556.489288) can0 78F#41C1000002000001
(1779393556.490260) can0 790#218A000030000000
(1779393556.491238) can0 791#2FC1000000000000
(1779393556.494596) can0 781#208100000D000100
(1779393556.495536) can0 78F#41C7000002000001
(1779393556.496548) can0 791#2FC7000002000000
(1779393556.500731) can0 78F#41C8000004000001
(1779393556.501903) can0 03C30F0F#87878787878787
(1779393556.502823) can0 791#2FC80000B68021AE
(1779393556.506912) can0 78F#41C9000004000001
(1779393556.508071) can0 791#2FC9000000000000
(1779393556.512139) can0 78F#42C1000002000001
(1779393556.514623) can0 792#2FC1000002010000
(1779393556.518720) can0 78F#42C7000002000001
(1779393556.520386) can0 792#2FC7000003500000
(1779393556.521368) can0 790#4181000000000000
(1779393556.522400) can0 781#408F000000000000
(1779393556.523468) can0 790#218F0000F05A0000
(1779393556.524749) can0 781#2081000013000100
(1779393556.525843) can0 00E#B68021AE00000000
(1779393556.526801) can0 78F#42C8000004000001
(1779393556.529484) can0 792#2FC80000E7510100
(1779393556.530624) can0 790#4181000000000000
(1779393556.531651) can0 781#408F000000000000
(1779393556.532781) can0 790#218F0000F8D90000
(1779393556.534534) can0 781#208100000E000100
(1779393556.535515) can0 78F#42C9000004000001
(1779393556.536479) can0 790#4181000000000000
(1779393556.537420) can0 792#2FC9000003500201
(1779393556.538389) can0 781#408F000000000000
(1779393556.539473) can0 790#218F000055750000
(1779393556.540745) can0 781#2081000014000100
(1779393556.543464) can0 78F#43C1000002000001
(1779393556.562861) can0 790#4181000000000000
(1779393556.564259) can0 781#408F000000000000
(1779393556.565365) can0 790#218F00000DFD0000
(1779393556.566647) can0 781#2081000011000100
(1779393556.575863) can0 00E#B68021AE00000000
(1779393556.584632) can0 790#4181000000000000
(1779393556.585656) can0 781#408F000000000000
(1779393556.586759) can0 790#218F00005C930000
(1779393556.588117) can0 781#2080000000000000
(1779393556.589242) can0 790#4180000000000000
(1779393556.601910) can0 03C30F0F#87878787878787
(1779393556.604491) can0 781#4040000000000000
(1779393556.605625) can0 790#21400000000003FF
(1779393556.606677) can0 781#4050000000000000
(1779393556.607837) can0 790#2150000003000000
(1779393556.608966) can0 041#00000000
(1779393556.619373) can0 782#2080000012000000
(1779393556.620502) can0 790#4280000000000000
(1779393556.624113) can0 782#2081000008000100
(1779393556.625421) can0 790#4281000000000000
(1779393556.626390) can0 00E#B68021AE00000000
(1779393556.629239) can0 782#508B000002000001
(1779393556.636598) can0 790#228B000006230000
(1779393556.639886) can0 782#2080000000000000
(1779393556.641037) can0 790#4280000000000000
(1779393556.654033) can0 782#2080000012000000
(1779393556.655126) can0 790#4280000000000000
(1779393556.657337) can0 782#2081000003500201
(1779393556.665116) can0 790#4281000000000000
(1779393556.667193) can0 782#508B000002000001
(1779393556.675880) can0 00E#B68021AE00000000
(1779393556.678850) can0 790#228B0000557D0000
(1779393556.681099) can0 782#2080000000000000
(1779393556.682227) can0 790#4280000000000000
(1779393556.701934) can0 03C30F0F#87878787878787
(1779393556.705092) can0 1C0C0000#64
(1779393556.708472) can0 042#00000000
(1779393556.709230) can0 041#80000000
(1779393556.709930) can0 040#80000000
(1779393556.710625) can0 042#80000000
(1779393556.711332) can0 050#00000000
(1779393556.712033) can0 050#10000002
(1779393556.712722) can0 050#91000000
(1779393556.713512) can0 050#81000001
(1779393556.714329) can0 061#00000000
(1779393556.715187) can0 060#11000002
(1779393556.715911) can0 0C180102#0003
(1779393556.716613) can0 060#20000000
(1779393556.717363) can0 060#30000001
(1779393556.718017) can0 0C140200#02
(1779393556.718715) can0 060#80000080
(1779393556.719369) can0 0C140000#C0
(1779393556.720002) can0 0A040100#64
(1779393556.720731) can0 0C180000#0101
(1779393556.721452) can0 14300000#0000
(1779393556.722551) can0 1C300004#642F4A00D12C4A00
(1779393556.725266) can0 0C180001#200001
(1779393556.726229) can0 00E#B68021AE00000000
(1779393556.726869) can0 14300001#00
(1779393556.765190) can0 0C180000#0101
(1779393556.768017) can0 1C2C0100#2E390C95051A
(1779393556.775888) can0 00E#B68021AE00000000
(1779393556.801971) can0 03C30F0F#87878787878787
(1779393556.815105) can0 0C140000#C1
(1779393556.825904) can0 00E#B68021AE00000000
(1779393556.845204) can0 140C0001#0000
(1779393556.875918) can0 00E#B68021AE00000000
(1779393556.901990) can0 03C30F0F#87878787878787
(1779393556.925918) can0 00E#B68021AE00000000
(1779393556.965190) can0 14300000#0000
(1779393556.975928) can0 00E#B68021AE00000000
(1779393557.002000) can0 03C30F0F#87878787878787
(1779393557.025940) can0 00E#B68021AE00000000
(1779393557.075953) can0 00E#B68021AE00000000
(1779393557.095193) can0 140C0001#0000
(1779393557.101999) can0 03C30F0F#87878787878787
(1779393557.125951) can0 00E#B68021AE00000000
(1779393557.175977) can0 00E#B68021AE00000000
(1779393557.202016) can0 03C30F0F#87878787878787
(1779393557.215210) can0 14300000#0000
(1779393557.225949) can0 00E#B68021AE00000000
(1779393557.257515) can0 78F#4080000001000001
(1779393557.258645) can0 790#2F80000000000000
(1779393557.262728) can0 78F#4180000001000001
(1779393557.263741) can0 791#CF80000020000000
(1779393557.267808) can0 78F#4280000001000001
(1779393557.269401) can0 792#CF80000020000000
(1779393557.273567) can0 78F#4080000001000001
(1779393557.274794) can0 790#2F80000000000000
(1779393557.275971) can0 00E#B68021AE00000000
(1779393557.302027) can0 03C30F0F#87878787878787
(1779393557.325993) can0 00E#B68021AE00000000
(1779393557.345206) can0 140C0001#0000
(1779393557.375117) can0 0C140000#C0
(1779393557.376091) can0 00E#B68021AE00000000
(1779393557.402057) can0 03C30F0F#87878787878787
(1779393557.421795) can0 02000100#0000
(1779393557.425995) can0 00E#B68021AE00000000
(1779393557.431782) can0 02000100#0000
(1779393557.441771) can0 02000100#0000
(1779393557.451794) can0 02000100#0000
(1779393557.460882) can0 78F#4080000001000001
(1779393557.462017) can0 790#2F80000000000000
(1779393557.462755) can0 02000100#0000
(1779393557.465186) can0 14300000#0000
(1779393557.465978) can0 0C180101#060201
(1779393557.466774) can0 0C180101#060201
(1779393557.468371) can0 78F#4180000001000001
(1779393557.469387) can0 791#CF80000020000000
(1779393557.471771) can0 02000100#0000
(1779393557.474305) can0 78F#4280000001000001
(1779393557.475100) can0 0C140000#C1
(1779393557.476077) can0 00E#B68021AE00000000
(1779393557.477602) can0 792#CF80000020000000
(1779393557.481780) can0 02000100#0000
(1779393557.483602) can0 78F#4080000001000001
(1779393557.484794) can0 790#2F80000000000000
(1779393557.489187) can0 78F#208000001F000000
(1779393557.490327) can0 790#4F80000000000000
(1779393557.491772) can0 02000100#0000
(1779393557.495058) can0 78F#2081000003000000
(1779393557.497233) can0 790#4F81000000000000
(1779393557.501286) can0 78F#4088000004000001
(1779393557.502021) can0 02000100#0000
(1779393557.503019) can0 03C30F0F#87878787878787
(1779393557.504017) can0 790#2F88000003000000
(1779393557.508691) can0 78F#4089000002000001
(1779393557.509809) can0 790#2F89000001000000
(1779393557.511794) can0 02000100#0000
(1779393557.514186) can0 78F#4086000004000001
(1779393557.515415) can0 790#2F8600000D000000
(1779393557.520846) can0 78F#408C00000D000001
(1779393557.521776) can0 02000100#0000
(1779393557.522810) can0 790#0F8C00000D000000
(1779393557.524401) can0 1E420001#F6FF010001072AFF
(1779393557.525979) can0 00E#B68021AE00000000
(1779393557.527843) can0 1E3F0001#
(1779393557.529106) can0 1E430002#0908814003
(1779393557.531598) can0 1E3F0002#
(1779393557.532338) can0 02000100#0000
(1779393557.533349) can0 790#8F8C000000000000
(1779393557.536730) can0 78F#808C000000000000
(1779393557.537711) can0 78F#208000001F000000
(1779393557.538839) can0 790#4F80000000000000
(1779393557.541784) can0 02000100#0000
(1779393557.543569) can0 78F#2081000000400100
(1779393557.551799) can0 02000100#0000
(1779393557.561796) can0 02000100#0000
(1779393557.571788) can0 02000100#0000
(1779393557.576023) can0 00E#B68021AE00000000
(1779393557.581804) can0 02000100#0000
(1779393557.591790) can0 02000100#0000
(1779393557.595196) can0 140C0001#0000
(1779393557.601849) can0 02000100#0000
(1779393557.602825) can0 03C30F0F#87878787878787
(1779393557.611814) can0 02000100#0000
(1779393557.621815) can0 02000100#0000
(1779393557.626005) can0 00E#B68021AE00000000
(1779393557.631808) can0 02000100#0000
(1779393557.633207) can0 790#4F81000000000000
(1779393557.637238) can0 78F#4089000002000001
(1779393557.638324) can0 790#2F8900000E000000
(1779393557.641790) can0 02000100#0000
(1779393557.642782) can0 78F#2080000000000000
(1779393557.643901) can0 790#4F80000000000000
(1779393557.651804) can0 02000100#0000
(1779393557.658589) can0 78F#208000001F000000
(1779393557.659722) can0 790#4F80000000000000
(1779393557.661800) can0 02000100#0000
(1779393557.664239) can0 78F#2081000003000000
(1779393557.671810) can0 02000100#0000
(1779393557.673683) can0 790#4F81000000000000
(1779393557.676025) can0 00E#B68021AE00000000
(1779393557.678320) can0 78F#4088000004000001
(1779393557.679464) can0 790#2F88000003000000
(1779393557.681816) can0 02000100#0000
(1779393557.684004) can0 78F#4089000002000001
(1779393557.685321) can0 790#2F89000001000000
(1779393557.689373) can0 78F#4086000004000001
(1779393557.690501) can0 790#2F8600000D000000
(1779393557.691800) can0 02000100#0000
(1779393557.695237) can0 78F#408C00000D000001
(1779393557.697178) can0 790#0F8C00000D000000
(1779393557.698790) can0 1E420001#F6FF010001072AFF
(1779393557.701822) can0 02000100#0000
(1779393557.702820) can0 03C30F0F#87878787878787
(1779393557.703393) can0 1E3F0001#
(1779393557.704724) can0 1E430002#0908814003
(1779393557.705375) can0 1C0C0000#64
(1779393557.707328) can0 1E3F0002#
(1779393557.708428) can0 790#8F8C000000000000
(1779393557.711883) can0 78F#808C000000000000
(1779393557.712617) can0 02000100#0000
(1779393557.713604) can0 78F#208000001F000000
(1779393557.714739) can0 790#4F80000000000000
(1779393557.715395) can0 0C140200#02
(1779393557.716114) can0 14300000#0000
(1779393557.719813) can0 78F#2081000000400100
(1779393557.721928) can0 790#4F81000000000000
(1779393557.722658) can0 02000100#0000
(1779393557.725590) can0 1C300004#642F4A00D12C4A00
(1779393557.726559) can0 00E#B68021AE00000000
(1779393557.727520) can0 78F#4089000002000001
(1779393557.728654) can0 790#2F8900000E000000
(1779393557.731812) can0 02000100#0000
(1779393557.732806) can0 78F#2080000000000000
(1779393557.733907) can0 790#4F80000000000000
(1779393557.741811) can0 02000100#0000
(1779393557.751813) can0 02000100#0000
(1779393557.761826) can0 02000100#0000
(1779393557.768156) can0 1C2C0100#2F390C95051A
(1779393557.771815) can0 02000100#0000
(1779393557.776043) can0 00E#B68021AE00000000
(1779393557.781826) can0 02000100#0000
(1779393557.791833) can0 02000100#0000
(1779393557.801836) can0 02000100#0000
(1779393557.802828) can0 03C30F0F#87878787878787
(1779393557.811838) can0 02000100#0000
(1779393557.821832) can0 02000100#0000
(1779393557.826040) can0 00E#B68021AE00000000
(1779393557.831843) can0 02000100#0000
(1779393557.836610) can0 78F#208000001F000000
(1779393557.837724) can0 790#4F80000000000000
(1779393557.841856) can0 78F#208100000B000100
(1779393557.842587) can0 02000100#0000
(1779393557.843855) can0 790#4F81000000000000
(1779393557.845188) can0 140C0001#0000
(1779393557.847936) can0 78F#408B000002000001
(1779393557.851822) can0 02000100#0000
(1779393557.861843) can0 02000100#0000
(1779393557.871831) can0 02000100#0000
(1779393557.876048) can0 00E#B68021AE00000000
(1779393557.881833) can0 02000100#0000
(1779393557.891831) can0 02000100#0000
(1779393557.901858) can0 02000100#0000
(1779393557.902845) can0 03C30F0F#87878787878787
(1779393557.911856) can0 02000100#0000
(1779393557.921845) can0 02000100#0000
(1779393557.926062) can0 00E#B68021AE00000000
(1779393557.931843) can0 02000100#0000
(1779393557.941851) can0 02000100#0000
(1779393557.951843) can0 02000100#0000
(1779393557.961849) can0 02000100#0000
(1779393557.965187) can0 14300000#0000
(1779393557.971845) can0 02000100#0000
(1779393557.976067) can0 00E#B68021AE00000000
(1779393557.981840) can0 02000100#0000
(1779393557.991857) can0 02000100#0000
(1779393558.001861) can0 02000100#0000
(1779393558.002854) can0 03C30F0F#87878787878787
(1779393558.011865) can0 02000100#0000
(1779393558.021868) can0 02000100#0000
(1779393558.026071) can0 00E#B68021AE00000000
(1779393558.031866) can0 02000100#0000
(1779393558.041907) can0 02000100#0000
(1779393558.042842) can0 790#2F8B000009670000
(1779393558.047049) can0 78F#2080000000000000
(1779393558.048136) can0 790#4F80000000000000
(1779393558.051867) can0 02000100#0000
(1779393558.061872) can0 02000100#0000
(1779393558.065993) can0 78F#208000001F000000
(1779393558.071861) can0 02000100#0000
(1779393558.073321) can0 790#4F80000000000000
(1779393558.076076) can0 00E#B68021AE00000000
(1779393558.078281) can0 78F#208100000B000100
(1779393558.080217) can0 790#4F81000000000000
(1779393558.081856) can0 02000100#0000
(1779393558.084316) can0 78F#408B000002000001
(1779393558.091874) can0 02000100#0000
(1779393558.095207) can0 140C0001#0000
(1779393558.101889) can0 02000100#0000
(1779393558.102874) can0 03C30F0F#87878787878787
(1779393558.111873) can0 02000100#0000
(1779393558.121878) can0 02000100#0000
(1779393558.126076) can0 00E#B68021AE00000000
(1779393558.131885) can0 02000100#0000
(1779393558.141895) can0 02000100#0000
(1779393558.151883) can0 02000100#0000
(1779393558.161869) can0 02000100#0000
(1779393558.171886) can0 02000100#0000
(1779393558.176100) can0 00E#B68021AE00000000
(1779393558.181865) can0 02000100#0000
(1779393558.191874) can0 02000100#0000
(1779393558.201892) can0 02000100#0000
(1779393558.202882) can0 03C30F0F#87878787878787
(1779393558.211878) can0 02000100#0000
(1779393558.215189) can0 14300000#0000
(1779393558.221894) can0 02000100#0000
(1779393558.226083) can0 00E#B68021AE00000000
(1779393558.231897) can0 02000100#0000
(1779393558.241909) can0 02000100#0000
(1779393558.251905) can0 02000100#0000
(1779393558.261902) can0 02000100#0000
(1779393558.271918) can0 02000100#0000
(1779393558.276130) can0 00E#B68021AE00000000
(1779393558.278237) can0 790#2F8B000009670000
(1779393558.281899) can0 02000100#0000
(1779393558.282882) can0 78F#2080000000000000
(1779393558.284023) can0 790#4F80000000000000
(1779393558.291894) can0 02000100#0000
(1779393558.301908) can0 02000100#0000
(1779393558.302896) can0 03C30F0F#87878787878787
(1779393558.311890) can0 02000100#0000
(1779393558.321901) can0 02000100#0000
(1779393558.326092) can0 00E#B68021AE00000000
(1779393558.331907) can0 02000100#0000
(1779393558.341915) can0 02000100#0000
(1779393558.345217) can0 140C0001#0000
(1779393558.351924) can0 02000100#0000
(1779393558.352908) can0 78F#208000001F000000
(1779393558.354057) can0 790#4F80000000000000
(1779393558.358129) can0 78F#208100000C000100
(1779393558.360117) can0 790#4F81000000000000
(1779393558.361905) can0 02000100#0000
(1779393558.364343) can0 78F#408B000002000001
(1779393558.371911) can0 02000100#0000
(1779393558.375113) can0 0C140000#C0
(1779393558.376144) can0 00E#B68021AE00000000
(1779393558.381904) can0 02000100#0000
(1779393558.391901) can0 02000100#0000
(1779393558.401931) can0 02000100#0000
(1779393558.402917) can0 03C30F0F#87878787878787
(1779393558.411897) can0 02000100#0000
(1779393558.421927) can0 02000100#0000
(1779393558.426123) can0 00E#B68021AE00000000
(1779393558.431916) can0 02000100#0000
(1779393558.441937) can0 02000100#0000
(1779393558.448831) can0 790#2F8B000032E40000
(1779393558.451920) can0 02000100#0000
(1779393558.452921) can0 78F#2080000000000000
(1779393558.454059) can0 790#4F80000000000000
(1779393558.461909) can0 02000100#0000
(1779393558.465185) can0 14300000#0000
(1779393558.467633) can0 78F#208000001F000000
(1779393558.471920) can0 02000100#0000
(1779393558.473342) can0 790#4F80000000000000
(1779393558.475105) can0 0C140000#C1
(1779393558.476156) can0 00E#B68021AE00000000
(1779393558.478127) can0 78F#208100000C000100
(1779393558.480108) can0 790#4F81000000000000
(1779393558.481914) can0 02000100#0000
(1779393558.484327) can0 78F#408B000002000001
(1779393558.491911) can0 02000100#0000
(1779393558.501942) can0 02000100#0000
(1779393558.502928) can0 03C30F0F#87878787878787
(1779393558.511922) can0 02000100#0000
(1779393558.521921) can0 02000100#0000
(1779393558.526129) can0 00E#B68021AE00000000
(1779393558.531932) can0 02000100#0000
(1779393558.541940) can0 02000100#0000
(1779393558.551946) can0 02000100#0000
(1779393558.560525) can0 790#2F8B000032E40000
(1779393558.561925) can0 02000100#0000
(1779393558.564643) can0 78F#2080000000000000
(1779393558.565736) can0 790#4F80000000000000
(1779393558.571932) can0 02000100#0000
(1779393558.576156) can0 00E#B68021AE00000000
(1779393558.581935) can0 02000100#0000
(1779393558.591921) can0 02000100#0000
(1779393558.595214) can0 140C0001#0000
(1779393558.601956) can0 02000100#0000
(1779393558.602949) can0 03C30F0F#87878787878787
(1779393558.611928) can0 02000100#0000
(1779393558.621943) can0 02000100#0000
(1779393558.624601) can0 78F#4080000001000001
(1779393558.625728) can0 790#2F80000000000000
(1779393558.626695) can0 00E#B68021AE00000000
(1779393558.631940) can0 02000100#0000
(1779393558.641941) can0 02000100#0000
(1779393558.651954) can0 02000100#0000
(1779393558.661940) can0 02000100#0000
(1779393558.671939) can0 02000100#0000
(1779393558.676177) can0 00E#B68021AE00000000
(1779393558.681941) can0 02000100#0000
(1779393558.691938) can0 02000100#0000
(1779393558.701970) can0 02000100#0000
(1779393558.702961) can0 03C30F0F#87878787878787
(1779393558.705103) can0 1C0C0000#64
(1779393558.711343) can0 0C140200#02
(1779393558.712076) can0 02000100#0000
(1779393558.715202) can0 14300000#0000
(1779393558.721947) can0 02000100#0000
(1779393558.726149) can0 00E#B68021AE00000000
(1779393558.731954) can0 02000100#0000
(1779393558.735608) can0 1C300004#642F4A00D12C4A00
(1779393558.741963) can0 02000100#0000
(1779393558.751962) can0 02000100#0000
(1779393558.761962) can0 02000100#0000
(1779393558.768296) can0 1C2C0100#30390C95051A
(1779393558.771940) can0 02000100#0000
(1779393558.776173) can0 00E#B68021AE00000000
(1779393558.781975) can0 02000100#0000
(1779393558.791950) can0 02000100#0000
(1779393558.801981) can0 02000100#0000
(1779393558.802970) can0 03C30F0F#87878787878787
(1779393558.811961) can0 02000100#0000
(1779393558.821961) can0 02000100#0000
(1779393558.826165) can0 00E#B68021AE00000000
(1779393558.831974) can0 02000100#0000
(1779393558.841970) can0 02000100#0000
(1779393558.845225) can0 140C0001#0000
(1779393558.851972) can0 02000100#0000
(1779393558.861962) can0 02000100#0000
(1779393558.871961) can0 02000100#0000
(1779393558.876192) can0 00E#B68021AE00000000
(1779393558.881976) can0 02000100#0000
(1779393558.891962) can0 02000100#0000
(1779393558.901995) can0 02000100#0000
(1779393558.902983) can0 03C30F0F#87878787878787
(1779393558.911973) can0 02000100#0000
(1779393558.921976) can0 02000100#0000
(1779393558.926176) can0 00E#B68021AE00000000
(1779393558.931985) can0 02000100#0000
(1779393558.941989) can0 02000100#0000
(1779393558.951995) can0 02000100#0000
(1779393558.961997) can0 02000100#0000
(1779393558.965210) can0 14300000#0000
(1779393558.971991) can0 02000100#0000
(1779393558.976216) can0 00E#B68021AE00000000
(1779393558.981997) can0 02000100#0000
(1779393558.991997) can0 02000100#0000
(1779393559.002000) can0 02000100#0000
(1779393559.002987) can0 03C30F0F#87878787878787
(1779393559.011998) can0 02000100#0000
(1779393559.021985) can0 02000100#0000
(1779393559.026179) can0 00E#B68021AE00000000
(1779393559.031986) can0 02000100#0000
(1779393559.041997) can0 02000100#0000
(1779393559.052004) can0 02000100#0000
(1779393559.057327) can0 78F#4082010002000001
(1779393559.058463) can0 790#2F82010000000000
(1779393559.062007) can0 02000100#0000
(1779393559.062969) can0 78F#4182010002000001
(1779393559.063999) can0 791#2F82010000000000
(1779393559.068041) can0 78F#4282010002000001
(1779393559.069628) can0 792#CF82010020000000
(1779393559.071985) can0 02000100#0000
(1779393559.074410) can0 78F#4382010002000001
(1779393559.076211) can0 00E#B68021AE00000000
(1779393559.082000) can0 02000100#0000
(1779393559.092002) can0 02000100#0000
(1779393559.095205) can0 140C0001#0000
(1779393559.102004) can0 02000100#0000
(1779393559.103000) can0 03C30F0F#87878787878787
(1779393559.112008) can0 02000100#0000
(1779393559.121998) can0 02000100#0000
(1779393559.126200) can0 00E#B68021AE00000000
(1779393559.131999) can0 02000100#0000
(1779393559.142011) can0 02000100#0000
(1779393559.152012) can0 02000100#0000
(1779393559.162014) can0 02000100#0000
(1779393559.172001) can0 02000100#0000
(1779393559.176230) can0 00E#B68021AE00000000
(1779393559.182001) can0 02000100#0000
(1779393559.192018) can0 02000100#0000
(1779393559.202025) can0 02000100#0000
(1779393559.203016) can0 03C30F0F#87878787878787
(1779393559.212016) can0 02000100#0000
(1779393559.215205) can0 14300000#0000
(1779393559.222011) can0 02000100#0000
(1779393559.225047) can0 0C140200#42
(1779393559.226209) can0 00E#B68021AE00000000
(1779393559.232013) can0 02000100#0000
(1779393559.235314) can0 0C180001#210001
(1779393559.235925) can0 14300001#19
(1779393559.242018) can0 02000100#0000
(1779393559.245215) can0 0C180000#0101
(1779393559.252012) can0 02000100#0000
(1779393559.262033) can0 02000100#0000
(1779393559.272027) can0 02000100#0000
(1779393559.276241) can0 00E#B68021AE00000000
(1779393559.282017) can0 02000100#0000
(1779393559.292031) can0 02000100#0000
(1779393559.302043) can0 02000100#0000
(1779393559.303032) can0 03C30F0F#87878787878787
(1779393559.312041) can0 02000100#0000
(1779393559.322030) can0 02000100#0000
(1779393559.326236) can0 00E#B68021AE00000000
(1779393559.332024) can0 02000100#0000
(1779393559.342048) can0 02000100#0000
(1779393559.345213) can0 140C0001#0000
(1779393559.352040) can0 02000100#0000
(1779393559.362030) can0 02000100#0000
(1779393559.372046) can0 02000100#0000
(1779393559.375126) can0 0C140000#C0
(1779393559.376259) can0 00E#B68021AE00000000
(1779393559.382030) can0 02000100#0000
(1779393559.392039) can0 02000100#0000
(1779393559.402051) can0 02000100#0000
(1779393559.403042) can0 03C30F0F#87878787878787
(1779393559.412038) can0 02000100#0000
(1779393559.422055) can0 02000100#0000
(1779393559.426238) can0 00E#B68021AE00000000
(1779393559.429093) can0 0C000200#D5D5
(1779393559.432075) can0 02000100#0000
(1779393559.442053) can0 02000100#0000
(1779393559.452058) can0 02000100#0000
(1779393559.462068) can0 02000100#0000
(1779393559.465204) can0 14300000#0000
(1779393559.472060) can0 02000100#0000
(1779393559.475121) can0 0C140000#C1
(1779393559.476281) can0 00E#B68021AE00000000
(1779393559.482043) can0 02000100#0000
(1779393559.492049) can0 02000100#0000
(1779393559.502064) can0 02000100#0000
(1779393559.503056) can0 03C30F0F#87878787878787
(1779393559.512054) can0 02000100#0000
(1779393559.522060) can0 02000100#0000
(1779393559.526261) can0 00E#B68021AE00000000
(1779393559.532051) can0 02000100#0000
(1779393559.542075) can0 02000100#0000
(1779393559.552079) can0 02000100#0000
(1779393559.562067) can0 02000100#0000
(1779393559.572076) can0 02000100#0000
(1779393559.576296) can0 00E#B68021AE00000000
(1779393559.582069) can0 02000100#0000
(1779393559.592063) can0 02000100#0000
(1779393559.595212) can0 140C0001#0000
(1779393559.602105) can0 02000100#0000
(1779393559.603085) can0 03C30F0F#87878787878787
(1779393559.612072) can0 02000100#0000
(1779393559.622080) can0 02000100#0000
(1779393559.626270) can0 00E#B68021AE00000000
(1779393559.632073) can0 02000100#0000
(1779393559.642064) can0 02000100#0000
(1779393559.652088) can0 02000100#0000
(1779393559.662083) can0 02000100#0000
(1779393559.672096) can0 02000100#0000
(1779393559.676308) can0 00E#B68021AE00000000
(1779393559.682084) can0 02000100#0000
(1779393559.692074) can0 02000100#0000
(1779393559.702106) can0 02000100#0000
(1779393559.703095) can0 03C30F0F#87878787878787
(1779393559.705108) can0 1C0C0000#64
(1779393559.712082) can0 02000100#0000
(1779393559.715201) can0 14300000#0000
(1779393559.722077) can0 02000100#0000
(1779393559.726275) can0 00E#B68021AE00000000
(1779393559.732076) can0 02000100#0000
(1779393559.742080) can0 02000100#0000
(1779393559.745612) can0 1C300004#642F4A00D12C4A00
(1779393559.752089) can0 02000100#0000
(1779393559.762091) can0 02000100#0000
(1779393559.768440) can0 1C2C0100#31390C95051A
(1779393559.772086) can0 02000100#0000
(1779393559.773400) can0 0C140200#82
(1779393559.775115) can0 14300001#32
(1779393559.776315) can0 00E#B68021AE00000000
(1779393559.782101) can0 02000100#0000
(1779393559.792087) can0 02000100#0000
(1779393559.802106) can0 02000100#0000
(1779393559.803098) can0 03C30F0F#87878787878787
(1779393559.812098) can0 02000100#0000
(1779393559.822088) can0 02000100#0000
(1779393559.826299) can0 00E#B68021AE00000000
(1779393559.832100) can0 02000100#0000
(1779393559.842095) can0 02000100#0000
(1779393559.845222) can0 140C0001#0000
(1779393559.852107) can0 02000100#0000
(1779393559.862105) can0 02000100#0000
(1779393559.872122) can0 02000100#0000
(1779393559.876359) can0 00E#B68021AE00000000
(1779393559.882119) can0 02000100#0000
(1779393559.892097) can0 02000100#0000
(1779393559.902119) can0 02000100#0000
(1779393559.903111) can0 03C30F0F#87878787878787
(1779393559.912111) can0 02000100#0000
(1779393559.922102) can0 02000100#0000
(1779393559.926304) can0 00E#B68021AE00000000
(1779393559.932119) can0 02000100#0000
(1779393559.937668) can0 0C000200#0000
(1779393559.942114) can0 02000100#0000
(1779393559.952103) can0 02000100#0000
(1779393559.962110) can0 02000100#0000
(1779393559.965210) can0 14300000#0000
(1779393559.972127) can0 02000100#0000
(1779393559.976365) can0 00E#B68021AE00000000
(1779393559.982136) can0 02000100#0000
(1779393559.992125) can0 02000100#0000
(1779393560.002132) can0 02000100#0000
(1779393560.003122) can0 03C30F0F#87878787878787
(1779393560.012129) can0 02000100#0000
(1779393560.022122) can0 02000100#0000
(1779393560.026307) can0 00E#B68021AE00000000
(1779393560.032124) can0 02000100#0000
(1779393560.042125) can0 02000100#0000
(1779393560.052117) can0 02000100#0000
(1779393560.062138) can0 02000100#0000
(1779393560.072129) can0 02000100#0000
(1779393560.076381) can0 00E#B68021AE00000000
(1779393560.078996) can0 78F#4080000001000001
(1779393560.080133) can0 790#2F80000000000000
(1779393560.082131) can0 02000100#0000
(1779393560.092140) can0 02000100#0000
(1779393560.095222) can0 140C0001#0000
(1779393560.102147) can0 02000100#0000
(1779393560.103132) can0 03C30F0F#87878787878787
(1779393560.112149) can0 02000100#0000
(1779393560.122135) can0 02000100#0000
(1779393560.126329) can0 00E#B68021AE00000000
(1779393560.132125) can0 02000100#0000
(1779393560.142140) can0 02000100#0000
(1779393560.152130) can0 02000100#0000
(1779393560.162137) can0 02000100#0000
(1779393560.172139) can0 02000100#0000
(1779393560.176383) can0 00E#B68021AE00000000
(1779393560.182148) can0 02000100#0000
(1779393560.192150) can0 02000100#0000
(1779393560.202153) can0 02000100#0000
(1779393560.203145) can0 03C30F0F#87878787878787
(1779393560.212144) can0 02000100#0000
(1779393560.215200) can0 14300000#0000
(1779393560.222151) can0 02000100#0000
(1779393560.226339) can0 00E#B68021AE00000000
(1779393560.232137) can0 02000100#0000
(1779393560.242138) can0 02000100#0000
(1779393560.252145) can0 02000100#0000
(1779393560.262163) can0 02000100#0000
(1779393560.271752) can0 0C140200#C2
(1779393560.272482) can0 02000100#0000
(1779393560.275300) can0 0C180001#210000
(1779393560.275909) can0 14300001#64
(1779393560.276897) can0 00E#B68021AE00000000
(1779393560.282147) can0 02000100#0000
(1779393560.285207) can0 0C180000#0101
(1779393560.292163) can0 02000100#0000
(1779393560.302168) can0 02000100#0000
(1779393560.303158) can0 03C30F0F#87878787878787
(1779393560.312159) can0 02000100#0000
(1779393560.322174) can0 02000100#0000
(1779393560.326367) can0 00E#B68021AE00000000
(1779393560.332145) can0 02000100#0000
(1779393560.342167) can0 02000100#0000
(1779393560.345226) can0 140C0001#0000
(1779393560.352175) can0 02000100#0000
(1779393560.362161) can0 02000100#0000
(1779393560.372193) can0 02000100#0000
(1779393560.375136) can0 0C140000#C0
(1779393560.376399) can0 00E#B68021AE00000000
(1779393560.382181) can0 02000100#0000
(1779393560.392196) can0 02000100#0000
(1779393560.402189) can0 02000100#0000
(1779393560.403171) can0 03C30F0F#87878787878787
(1779393560.412167) can0 02000100#0000
(1779393560.422189) can0 02000100#0000
(1779393560.426368) can0 00E#B68021AE00000000
(1779393560.432168) can0 02000100#0000
(1779393560.442181) can0 02000100#0000
(1779393560.452178) can0 02000100#0000
(1779393560.462173) can0 02000100#0000
(1779393560.465215) can0 14300000#0000
(1779393560.472206) can0 02000100#0000
(1779393560.475134) can0 0C140000#C1
(1779393560.476408) can0 00E#B68021AE00000000
(1779393560.482199) can0 02000100#0000
(1779393560.492213) can0 02000100#0000
(1779393560.502223) can0 02000100#0000
(1779393560.503197) can0 03C30F0F#87878787878787
(1779393560.512186) can0 02000100#0000
(1779393560.522193) can0 02000100#0000
(1779393560.526385) can0 00E#B68021AE00000000
(1779393560.532188) can0 02000100#0000
(1779393560.542211) can0 02000100#0000
(1779393560.552206) can0 02000100#0000
(1779393560.562199) can0 02000100#0000
(1779393560.572196) can0 02000100#0000
(1779393560.576437) can0 00E#B68021AE00000000
(1779393560.582198) can0 02000100#0000
(1779393560.587972) can0 78F#4080000001000001
(1779393560.589101) can0 790#2F80000000000000
(1779393560.592192) can0 02000100#0000
(1779393560.595225) can0 140C0001#0000
(1779393560.602233) can0 02000100#0000
(1779393560.603215) can0 03C30F0F#87878787878787
(1779393560.612202) can0 02000100#0000
(1779393560.622207) can0 02000100#0000
(1779393560.626399) can0 00E#B68021AE00000000
(1779393560.632209) can0 02000100#0000
(1779393560.642191) can0 02000100#0000
(1779393560.652210) can0 02000100#0000
(1779393560.662203) can0 02000100#0000
(1779393560.672204) can0 02000100#0000
(1779393560.676422) can0 00E#B68021AE00000000
(1779393560.682202) can0 02000100#0000
(1779393560.692230) can0 02000100#0000
(1779393560.702255) can0 02000100#0000
(1779393560.703238) can0 03C30F0F#87878787878787
(1779393560.705132) can0 1C0C0000#64
(1779393560.712221) can0 02000100#0000
(1779393560.715211) can0 14300000#0000
(1779393560.722207) can0 02000100#0000
(1779393560.726416) can0 00E#B68021AE00000000
(1779393560.732211) can0 02000100#0000
(1779393560.742206) can0 02000100#0000
(1779393560.752221) can0 02000100#0000
(1779393560.755618) can0 1C300004#642F4A00D12C4A00
(1779393560.762220) can0 02000100#0000
(1779393560.768556) can0 1C2C0100#32390C95051A
(1779393560.772217) can0 02000100#0000
(1779393560.776445) can0 00E#B68021AE00000000
(1779393560.782237) can0 02000100#0000
(1779393560.792243) can0 02000100#0000
(1779393560.802258) can0 02000100#0000
(1779393560.803238) can0 03C30F0F#87878787878787
(1779393560.812267) can0 02000100#0000
(1779393560.822252) can0 02000100#0000
(1779393560.826440) can0 00E#B68021AE00000000
(1779393560.832247) can0 02000100#0000
(1779393560.842228) can0 02000100#0000
(1779393560.845225) can0 140C0001#0000
(1779393560.852227) can0 02000100#0000
(1779393560.862229) can0 02000100#0000
(1779393560.872226) can0 02000100#0000
(1779393560.876461) can0 00E#B68021AE00000000
(1779393560.882250) can0 02000100#0000
(1779393560.892247) can0 02000100#0000
(1779393560.902273) can0 02000100#0000
(1779393560.903249) can0 03C30F0F#87878787878787
(1779393560.912253) can0 02000100#0000
(1779393560.922235) can0 02000100#0000
(1779393560.926434) can0 00E#B68021AE00000000
(1779393560.932246) can0 02000100#0000
(1779393560.942240) can0 02000100#0000
(1779393560.952237) can0 02000100#0000
(1779393560.962252) can0 02000100#0000
(1779393560.965221) can0 14300000#0000
(1779393560.972243) can0 02000100#0000
(1779393560.976472) can0 00E#B68021AE00000000
(1779393560.982260) can0 02000100#0000
(1779393560.992265) can0 02000100#0000
(1779393561.002289) can0 02000100#0000
(1779393561.003294) can0 03C30F0F#87878787878787
(1779393561.012267) can0 02000100#0000
(1779393561.022251) can0 02000100#0000
(1779393561.026449) can0 00E#B68021AE00000000
(1779393561.032254) can0 02000100#0000
(1779393561.042260) can0 02000100#0000
(1779393561.052252) can0 02000100#0000
(1779393561.062265) can0 02000100#0000
(1779393561.072249) can0 02000100#0000
(1779393561.076487) can0 00E#B68021AE00000000
(1779393561.082258) can0 02000100#0000
(1779393561.092275) can0 02000100#0000
(1779393561.095238) can0 140C0001#0000
(1779393561.098830) can0 78F#4080000001000001
(1779393561.099962) can0 790#2F80000000000000
(1779393561.102287) can0 02000100#0000
(1779393561.103299) can0 03C30F0F#87878787878787
(1779393561.112297) can0 02000100#0000
(1779393561.122276) can0 02000100#0000
(1779393561.126466) can0 00E#B68021AE00000000
(1779393561.132261) can0 02000100#0000
(1779393561.142265) can0 02000100#0000
(1779393561.152262) can0 02000100#0000
(1779393561.162275) can0 02000100#0000
(1779393561.172276) can0 02000100#0000
(1779393561.176513) can0 00E#B68021AE00000000
(1779393561.182283) can0 02000100#0000
(1779393561.192314) can0 02000100#0000
(1779393561.202327) can0 02000100#0000
(1779393561.203350) can0 03C30F0F#87878787878787
(1779393561.212327) can0 02000100#0000
(1779393561.215239) can0 14300000#0000
(1779393561.222299) can0 02000100#0000
(1779393561.226497) can0 00E#B68021AE00000000
(1779393561.232285) can0 02000100#0000
(1779393561.242315) can0 02000100#0000
(1779393561.252298) can0 02000100#0000
(1779393561.262309) can0 02000100#0000
(1779393561.268224) can0 0C140200#C2
(1779393561.272320) can0 02000100#0000
(1779393561.276533) can0 00E#B68021AE00000000
(1779393561.282297) can0 02000100#0000
(1779393561.292320) can0 02000100#0000
(1779393561.302344) can0 02000100#0000
(1779393561.303331) can0 03C30F0F#87878787878787
(1779393561.312329) can0 02000100#0000
(1779393561.322324) can0 02000100#0000
(1779393561.326526) can0 00E#B68021AE00000000
(1779393561.332323) can0 02000100#0000
(1779393561.342339) can0 02000100#0000
(1779393561.345258) can0 140C0001#0000
(1779393561.352343) can0 02000100#0000
(1779393561.362328) can0 02000100#0000
(1779393561.372352) can0 02000100#0000
(1779393561.375142) can0 0C140000#C0
(1779393561.376525) can0 00E#B68021AE00000000
(1779393561.382289) can0 02000100#0000
(1779393561.392330) can0 02000100#0000
(1779393561.402339) can0 02000100#0000
(1779393561.403346) can0 03C30F0F#87878787878787
(1779393561.412314) can0 02000100#0000
(1779393561.422318) can0 02000100#0000
(1779393561.426501) can0 00E#B68021AE00000000
(1779393561.432303) can0 02000100#0000
(1779393561.442312) can0 02000100#0000
(1779393561.452320) can0 02000100#0000
(1779393561.462310) can0 02000100#0000
(1779393561.465217) can0 14300000#0000
(1779393561.472317) can0 02000100#0000
(1779393561.475137) can0 0C140000#C1
(1779393561.476534) can0 00E#B68021AE00000000
(1779393561.482313) can0 02000100#0000
(1779393561.492333) can0 02000100#0000
(1779393561.502353) can0 02000100#0000
(1779393561.503335) can0 03C30F0F#87878787878787
(1779393561.512337) can0 02000100#0000
(1779393561.522361) can0 02000100#0000
(1779393561.526542) can0 00E#B68021AE00000000
(1779393561.532350) can0 02000100#0000
(1779393561.542345) can0 02000100#0000
(1779393561.552338) can0 02000100#0000
(1779393561.562322) can0 02000100#0000
(1779393561.572329) can0 02000100#0000
(1779393561.576566) can0 00E#B68021AE00000000
(1779393561.582324) can0 02000100#0000
(1779393561.592331) can0 02000100#0000
(1779393561.595236) can0 140C0001#0000
(1779393561.602364) can0 02000100#0000
(1779393561.603354) can0 03C30F0F#87878787878787
(1779393561.608019) can0 78F#4080000001000001
(1779393561.609152) can0 790#2F80000000000000
(1779393561.612354) can0 02000100#0000
(1779393561.622348) can0 02000100#0000
(1779393561.626536) can0 00E#B68021AE00000000
(1779393561.632338) can0 02000100#0000
(1779393561.642326) can0 02000100#0000
(1779393561.652353) can0 02000100#0000
(1779393561.662336) can0 02000100#0000
(1779393561.672337) can0 02000100#0000
(1779393561.676567) can0 00E#B68021AE00000000
(1779393561.682343) can0 02000100#0000
(1779393561.692349) can0 02000100#0000
(1779393561.702377) can0 02000100#0000
(1779393561.703363) can0 03C30F0F#87878787878787
(1779393561.705139) can0 1C0C0000#64
(1779393561.712365) can0 02000100#0000
(1779393561.715249) can0 14300000#0000
(1779393561.722362) can0 02000100#0000
(1779393561.726552) can0 00E#B68021AE00000000
(1779393561.732350) can0 02000100#0000
(1779393561.742339) can0 02000100#0000
(1779393561.752364) can0 02000100#0000
(1779393561.762349) can0 02000100#0000
(1779393561.765616) can0 1C300004#642F4A00D12C4A00
(1779393561.768675) can0 1C2C0100#33390C95051A
(1779393561.772347) can0 02000100#0000
(1779393561.776579) can0 00E#B68021AE00000000
(1779393561.782349) can0 02000100#0000
(1779393561.792357) can0 02000100#0000
(1779393561.802386) can0 02000100#0000
(1779393561.803372) can0 03C30F0F#87878787878787
(1779393561.812377) can0 02000100#0000
(1779393561.822377) can0 02000100#0000
(1779393561.826565) can0 00E#B68021AE00000000
(1779393561.832366) can0 02000100#0000
(1779393561.842352) can0 02000100#0000
(1779393561.845232) can0 140C0001#0000
(1779393561.852362) can0 02000100#0000
(1779393561.862377) can0 02000100#0000
(1779393561.872365) can0 02000100#0000
(1779393561.876592) can0 00E#B68021AE00000000
(1779393561.882375) can0 02000100#0000
(1779393561.892363) can0 02000100#0000
(1779393561.902402) can0 02000100#0000
(1779393561.903389) can0 03C30F0F#87878787878787
(1779393561.912384) can0 02000100#0000
(1779393561.922391) can0 02000100#0000
(1779393561.926590) can0 00E#B68021AE00000000
(1779393561.932395) can0 02000100#0000
(1779393561.942394) can0 02000100#0000
(1779393561.952395) can0 02000100#0000
(1779393561.962394) can0 02000100#0000
(1779393561.965241) can0 14300000#0000
(1779393561.972399) can0 02000100#0000
(1779393561.976613) can0 00E#B68021AE00000000
(1779393561.982386) can0 02000100#0000
(1779393561.992387) can0 02000100#0000
(1779393562.002411) can0 02000100#0000
(1779393562.003394) can0 03C30F0F#87878787878787
(1779393562.012403) can0 02000100#0000
(1779393562.022402) can0 02000100#0000
(1779393562.026607) can0 00E#B68021AE00000000
(1779393562.032407) can0 02000100#0000
(1779393562.042399) can0 02000100#0000
(1779393562.052391) can0 02000100#0000
(1779393562.062405) can0 02000100#0000
(1779393562.072386) can0 02000100#0000
(1779393562.076618) can0 00E#B68021AE00000000
(1779393562.082400) can0 02000100#0000
(1779393562.092402) can0 02000100#0000
(1779393562.095236) can0 140C0001#0000
(1779393562.102411) can0 02000100#0000
(1779393562.103401) can0 03C30F0F#87878787878787
(1779393562.112413) can0 02000100#0000
(1779393562.118036) can0 78F#4080000001000001
(1779393562.122417) can0 02000100#0000
(1779393562.126626) can0 00E#B68021AE00000000
(1779393562.127612) can0 790#2F80000000000000
(1779393562.132413) can0 02000100#0000
(1779393562.142405) can0 02000100#0000
(1779393562.152397) can0 02000100#0000
(1779393562.162412) can0 02000100#0000
(1779393562.172403) can0 02000100#0000
(1779393562.176629) can0 00E#B68021AE00000000
(1779393562.182394) can0 02000100#0000
(1779393562.192405) can0 02000100#0000
(1779393562.202432) can0 02000100#0000
(1779393562.203415) can0 03C30F0F#87878787878787
(1779393562.212423) can0 02000100#0000
(1779393562.215237) can0 14300000#0000
(1779393562.222448) can0 02000100#0000
(1779393562.226622) can0 00E#B68021AE00000000
(1779393562.232413) can0 02000100#0000
(1779393562.242423) can0 02000100#0000
(1779393562.252410) can0 02000100#0000
(1779393562.262425) can0 02000100#0000
(1779393562.265018) can0 0C140200#C2
(1779393562.272420) can0 02000100#0000
(1779393562.276642) can0 00E#B68021AE00000000
(1779393562.282408) can0 02000100#0000
(1779393562.292439) can0 02000100#0000
(1779393562.302440) can0 02000100#0000
(1779393562.303429) can0 03C30F0F#87878787878787
(1779393562.312435) can0 02000100#0000
(1779393562.322435) can0 02000100#0000
(1779393562.326656) can0 00E#B68021AE00000000
(1779393562.332441) can0 02000100#0000
(1779393562.342454) can0 02000100#0000
(1779393562.345251) can0 140C0001#0000
(1779393562.352438) can0 02000100#0000
(1779393562.362438) can0 02000100#0000
(1779393562.372440) can0 02000100#0000
(1779393562.375147) can0 0C140000#C0
(1779393562.376660) can0 00E#B68021AE00000000
(1779393562.382425) can0 02000100#0000
(1779393562.392443) can0 02000100#0000
(1779393562.402464) can0 02000100#0000
(1779393562.403447) can0 03C30F0F#87878787878787
(1779393562.412436) can0 02000100#0000
(1779393562.422459) can0 02000100#0000
(1779393562.426657) can0 00E#B68021AE00000000
(1779393562.432457) can0 02000100#0000
(1779393562.442448) can0 02000100#0000
(1779393562.452454) can0 02000100#0000
(1779393562.462439) can0 02000100#0000
(1779393562.465224) can0 14300000#0000
(1779393562.472454) can0 02000100#0000
(1779393562.475137) can0 0C140000#C1
(1779393562.476663) can0 00E#B68021AE00000000
(1779393562.482442) can0 02000100#0000
(1779393562.492448) can0 02000100#0000
(1779393562.502477) can0 02000100#0000
(1779393562.503461) can0 03C30F0F#87878787878787
(1779393562.512451) can0 02000100#0000
(1779393562.522480) can0 02000100#0000
(1779393562.526662) can0 00E#B68021AE00000000
(1779393562.532466) can0 02000100#0000
(1779393562.542474) can0 02000100#0000
(1779393562.552475) can0 02000100#0000
(1779393562.562472) can0 02000100#0000
(1779393562.572466) can0 02000100#0000
(1779393562.576693) can0 00E#B68021AE00000000
(1779393562.582462) can0 02000100#0000
(1779393562.592454) can0 02000100#0000
(1779393562.595243) can0 140C0001#0000
(1779393562.602485) can0 02000100#0000
(1779393562.603474) can0 03C30F0F#87878787878787
(1779393562.612472) can0 02000100#0000
(1779393562.622478) can0 02000100#0000
(1779393562.626679) can0 00E#B68021AE00000000
(1779393562.628881) can0 78F#4080000001000001
(1779393562.629964) can0 790#2F80000000000000
(1779393562.632482) can0 02000100#0000
(1779393562.642483) can0 02000100#0000
(1779393562.652502) can0 02000100#0000
(1779393562.662492) can0 02000100#0000
(1779393562.672483) can0 02000100#0000
(1779393562.676701) can0 00E#B68021AE00000000
(1779393562.682466) can0 02000100#0000
(1779393562.692463) can0 02000100#0000
(1779393562.702507) can0 02000100#0000
(1779393562.703493) can0 03C30F0F#87878787878787
(1779393562.705130) can0 1C0C0000#64
(1779393562.712485) can0 02000100#0000
(1779393562.715231) can0 14300000#0000
(1779393562.722479) can0 02000100#0000
(1779393562.726681) can0 00E#B68021AE00000000
(1779393562.732483) can0 02000100#0000
(1779393562.742473) can0 02000100#0000
(1779393562.752489) can0 02000100#0000
(1779393562.762482) can0 02000100#0000
(1779393562.768814) can0 1C2C0100#34390C95051A
(1779393562.772480) can0 02000100#0000
(1779393562.775630) can0 1C300004#642F4A00D12C4A00
(1779393562.776733) can0 00E#B68021AE00000000
(1779393562.782488) can0 02000100#0000
(1779393562.792481) can0 02000100#0000
(1779393562.802514) can0 02000100#0000
(1779393562.803500) can0 03C30F0F#87878787878787
(1779393562.812500) can0 02000100#0000
(1779393562.822494) can0 02000100#0000
(1779393562.826697) can0 00E#B68021AE00000000
(1779393562.832512) can0 02000100#0000
(1779393562.842507) can0 02000100#0000
(1779393562.845248) can0 140C0001#0000
(1779393562.852500) can0 02000100#0000
(1779393562.862503) can0 02000100#0000
(1779393562.872493) can0 02000100#0000
(1779393562.876723) can0 00E#B68021AE00000000
(1779393562.882509) can0 02000100#0000
(1779393562.892494) can0 02000100#0000
(1779393562.902531) can0 02000100#0000
(1779393562.903512) can0 03C30F0F#87878787878787
(1779393562.912514) can0 02000100#0000
(1779393562.922500) can0 02000100#0000
(1779393562.926703) can0 00E#B68021AE00000000
(1779393562.932519) can0 02000100#0000
(1779393562.942523) can0 02000100#0000
(1779393562.952512) can0 02000100#0000
(1779393562.962504) can0 02000100#0000
(1779393562.965231) can0 14300000#0000
(1779393562.972504) can0 02000100#0000
(1779393562.976735) can0 00E#B68021AE00000000
(1779393562.982514) can0 02000100#0000
(1779393562.992514) can0 02000100#0000
(1779393563.002536) can0 02000100#0000
(1779393563.003521) can0 03C30F0F#87878787878787
(1779393563.012533) can0 02000100#0000
(1779393563.022520) can0 02000100#0000
(1779393563.026718) can0 00E#B68021AE00000000
(1779393563.032532) can0 02000100#0000
(1779393563.042539) can0 02000100#0000
(1779393563.052525) can0 02000100#0000
(1779393563.062535) can0 02000100#0000
(1779393563.072512) can0 02000100#0000
(1779393563.076749) can0 00E#B68021AE00000000
(1779393563.082530) can0 02000100#0000
(1779393563.092527) can0 02000100#0000
(1779393563.095238) can0 140C0001#0000
(1779393563.102552) can0 02000100#0000
(1779393563.103538) can0 03C30F0F#87878787878787
(1779393563.112544) can0 02000100#0000
(1779393563.122524) can0 02000100#0000
(1779393563.126730) can0 00E#B68021AE00000000
(1779393563.132537) can0 02000100#0000
(1779393563.138058) can0 78F#4080000001000001
(1779393563.139151) can0 790#2F80000000000000
(1779393563.142528) can0 02000100#0000
(1779393563.152546) can0 02000100#0000
(1779393563.162543) can0 02000100#0000
(1779393563.172540) can0 02000100#0000
(1779393563.176761) can0 00E#B68021AE00000000
(1779393563.182526) can0 02000100#0000
(1779393563.192545) can0 02000100#0000
(1779393563.202559) can0 02000100#0000
(1779393563.203545) can0 03C30F0F#87878787878787
(1779393563.212545) can0 02000100#0000
(1779393563.215225) can0 14300000#0000
(1779393563.222551) can0 02000100#0000
(1779393563.226738) can0 00E#B68021AE00000000
(1779393563.232538) can0 02000100#0000
(1779393563.242554) can0 02000100#0000
(1779393563.252557) can0 02000100#0000
(1779393563.261911) can0 0C140200#C2
(1779393563.262649) can0 02000100#0000
(1779393563.272556) can0 02000100#0000
(1779393563.276776) can0 00E#B68021AE00000000
(1779393563.282534) can0 02000100#0000
(1779393563.292561) can0 02000100#0000
(1779393563.302576) can0 02000100#0000
(1779393563.303564) can0 03C30F0F#87878787878787
(1779393563.312571) can0 02000100#0000
(1779393563.322564) can0 02000100#0000
(1779393563.326756) can0 00E#B68021AE00000000
(1779393563.332557) can0 02000100#0000
(1779393563.342584) can0 02000100#0000
(1779393563.345256) can0 140C0001#0000
(1779393563.352593) can0 02000100#0000
(1779393563.362586) can0 02000100#0000
(1779393563.372562) can0 02000100#0000
(1779393563.375156) can0 0C140000#C0
(1779393563.376785) can0 00E#B68021AE00000000
(1779393563.382558) can0 02000100#0000
(1779393563.392574) can0 02000100#0000
(1779393563.402597) can0 02000100#0000
(1779393563.403586) can0 03C30F0F#87878787878787
(1779393563.412565) can0 02000100#0000
(1779393563.422579) can0 02000100#0000
(1779393563.426776) can0 00E#B68021AE00000000
(1779393563.432568) can0 02000100#0000
(1779393563.442584) can0 02000100#0000
(1779393563.452610) can0 02000100#0000
(1779393563.462576) can0 02000100#0000
(1779393563.465240) can0 14300000#0000
(1779393563.472593) can0 02000100#0000
(1779393563.475142) can0 0C140000#C1
(1779393563.476810) can0 00E#B68021AE00000000
(1779393563.482574) can0 02000100#0000
(1779393563.492587) can0 02000100#0000
(1779393563.502601) can0 02000100#0000
(1779393563.503600) can0 03C30F0F#87878787878787
(1779393563.512590) can0 02000100#0000
(1779393563.522604) can0 02000100#0000
(1779393563.526789) can0 00E#B68021AE00000000
(1779393563.532608) can0 02000100#0000
(1779393563.542606) can0 02000100#0000
(1779393563.552611) can0 02000100#0000
(1779393563.562595) can0 02000100#0000
(1779393563.572602) can0 02000100#0000
(1779393563.576827) can0 00E#B68021AE00000000
(1779393563.582589) can0 02000100#0000
(1779393563.592591) can0 02000100#0000
(1779393563.595243) can0 140C0001#0000
(1779393563.602642) can0 02000100#0000
(1779393563.603624) can0 03C30F0F#87878787878787
(1779393563.612600) can0 02000100#0000
(1779393563.622600) can0 02000100#0000
(1779393563.626795) can0 00E#B68021AE00000000
(1779393563.632604) can0 02000100#0000
(1779393563.642593) can0 02000100#0000
(1779393563.648077) can0 78F#4080000001000001
(1779393563.650671) can0 790#2F80000000000000
(1779393563.652609) can0 02000100#0000
(1779393563.662627) can0 02000100#0000
(1779393563.672634) can0 02000100#0000
(1779393563.676848) can0 00E#B68021AE00000000
(1779393563.682627) can0 02000100#0000
(1779393563.692601) can0 02000100#0000
(1779393563.702637) can0 02000100#0000
(1779393563.703636) can0 03C30F0F#87878787878787
(1779393563.705139) can0 1C0C0000#64
(1779393563.712606) can0 02000100#0000
(1779393563.715236) can0 14300000#0000
(1779393563.722621) can0 02000100#0000
(1779393563.726814) can0 00E#B68021AE00000000
(1779393563.732610) can0 02000100#0000
(1779393563.742614) can0 02000100#0000
(1779393563.752627) can0 02000100#0000
(1779393563.762633) can0 02000100#0000
(1779393563.768960) can0 1C2C0100#35390C95051A
(1779393563.772630) can0 02000100#0000
(1779393563.776854) can0 00E#B68021AE00000000
(1779393563.782634) can0 02000100#0000
(1779393563.785654) can0 1C300004#642F4A00D12C4A00
(1779393563.792621) can0 02000100#0000
(1779393563.802644) can0 02000100#0000
(1779393563.803640) can0 03C30F0F#87878787878787
(1779393563.812629) can0 02000100#0000
(1779393563.822624) can0 02000100#0000
(1779393563.826828) can0 00E#B68021AE00000000
(1779393563.832634) can0 02000100#0000
(1779393563.842619) can0 02000100#0000
(1779393563.845243) can0 140C0001#0000
(1779393563.852634) can0 02000100#0000
(1779393563.862643) can0 02000100#0000
(1779393563.872632) can0 02000100#0000
(1779393563.876858) can0 00E#B68021AE00000000
(1779393563.882644) can0 02000100#0000
(1779393563.892632) can0 02000100#0000
(1779393563.902663) can0 02000100#0000
(1779393563.903654) can0 03C30F0F#87878787878787
(1779393563.912646) can0 02000100#0000
(1779393563.922638) can0 02000100#0000
(1779393563.926839) can0 00E#B68021AE00000000
(1779393563.932649) can0 02000100#0000
(1779393563.942632) can0 02000100#0000
(1779393563.952646) can0 02000100#0000
(1779393563.962646) can0 02000100#0000
(1779393563.965260) can0 14300000#0000
(1779393563.972664) can0 02000100#0000
(1779393563.976888) can0 00E#B68021AE00000000
(1779393563.982672) can0 02000100#0000
(1779393563.992673) can0 02000100#0000
(1779393564.002688) can0 02000100#0000
(1779393564.003682) can0 03C30F0F#87878787878787
(1779393564.012680) can0 02000100#0000
(1779393564.022663) can0 02000100#0000
(1779393564.026873) can0 00E#B68021AE00000000
(1779393564.032681) can0 02000100#0000
(1779393564.042669) can0 02000100#0000
(1779393564.052644) can0 02000100#0000
(1779393564.062670) can0 02000100#0000
(1779393564.072676) can0 02000100#0000
(1779393564.076903) can0 00E#B68021AE00000000
(1779393564.082679) can0 02000100#0000
(1779393564.092686) can0 02000100#0000
(1779393564.095267) can0 140C0001#0000
(1779393564.102698) can0 02000100#0000
(1779393564.103686) can0 03C30F0F#87878787878787
(1779393564.112706) can0 02000100#0000
(1779393564.122689) can0 02000100#0000
(1779393564.126885) can0 00E#B68021AE00000000
(1779393564.132687) can0 02000100#0000
(1779393564.142683) can0 02000100#0000
(1779393564.152697) can0 02000100#0000
(1779393564.158150) can0 78F#4080000001000001
(1779393564.159299) can0 790#2F80000000000000
(1779393564.162698) can0 02000100#0000
(1779393564.172685) can0 02000100#0000
(1779393564.176921) can0 00E#B68021AE00000000
(1779393564.182685) can0 02000100#0000
(1779393564.192699) can0 02000100#0000
(1779393564.202715) can0 02000100#0000
(1779393564.203699) can0 03C30F0F#87878787878787
(1779393564.212722) can0 02000100#0000
(1779393564.215259) can0 14300000#0000
(1779393564.222705) can0 02000100#0000
(1779393564.226898) can0 00E#B68021AE00000000
(1779393564.232709) can0 02000100#0000
(1779393564.242710) can0 02000100#0000
(1779393564.252702) can0 02000100#0000
(1779393564.258686) can0 0C140200#C2
(1779393564.262714) can0 02000100#0000
(1779393564.272707) can0 02000100#0000
(1779393564.276930) can0 00E#B68021AE00000000
(1779393564.282698) can0 02000100#0000
(1779393564.292693) can0 02000100#0000
(1779393564.302699) can0 02000100#0000
(1779393564.303687) can0 03C30F0F#87878787878787
(1779393564.312707) can0 02000100#0000
(1779393564.322693) can0 02000100#0000
(1779393564.326892) can0 00E#B68021AE00000000
(1779393564.332692) can0 02000100#0000
(1779393564.342684) can0 02000100#0000
(1779393564.345244) can0 140C0001#0000
(1779393564.352693) can0 02000100#0000
(1779393564.362712) can0 02000100#0000
(1779393564.372722) can0 02000100#0000
(1779393564.375181) can0 0C140000#C0
(1779393564.376925) can0 00E#B68021AE00000000
(1779393564.382701) can0 02000100#0000
(1779393564.392702) can0 02000100#0000
(1779393564.402714) can0 02000100#0000
(1779393564.403701) can0 03C30F0F#87878787878787
(1779393564.412712) can0 02000100#0000
(1779393564.422713) can0 02000100#0000
(1779393564.426907) can0 00E#B68021AE00000000
(1779393564.432708) can0 02000100#0000
(1779393564.442715) can0 02000100#0000
(1779393564.452706) can0 02000100#0000
(1779393564.462718) can0 02000100#0000
(1779393564.465244) can0 14300000#0000
(1779393564.472722) can0 02000100#0000
(1779393564.475159) can0 0C140000#C1
(1779393564.476957) can0 00E#B68021AE00000000
(1779393564.482730) can0 02000100#0000
(1779393564.492749) can0 02000100#0000
(1779393564.502757) can0 02000100#0000
(1779393564.503741) can0 03C30F0F#87878787878787
(1779393564.512745) can0 02000100#0000
(1779393564.522738) can0 02000100#0000
(1779393564.526920) can0 00E#B68021AE00000000
(1779393564.532741) can0 02000100#0000
(1779393564.542759) can0 02000100#0000
(1779393564.552729) can0 02000100#0000
(1779393564.553903) can0 181C0F00#0160800000000000
(1779393564.562739) can0 02000100#0000
(1779393564.572745) can0 02000100#0000
(1779393564.576959) can0 00E#B68021AE00000000
(1779393564.582761) can0 02000100#0000
(1779393564.592757) can0 02000100#0000
(1779393564.595257) can0 140C0001#0000
(1779393564.602755) can0 02000100#0000
(1779393564.603743) can0 03C30F0F#87878787878787
(1779393564.612740) can0 02000100#0000
(1779393564.622755) can0 02000100#0000
(1779393564.626947) can0 00E#B68021AE00000000
(1779393564.632741) can0 02000100#0000
(1779393564.642747) can0 02000100#0000
(1779393564.652746) can0 02000100#0000
(1779393564.662741) can0 02000100#0000
(1779393564.668271) can0 78F#4080000001000001
(1779393564.672759) can0 02000100#0000
(1779393564.673759) can0 790#2F80000000000000
(1779393564.676972) can0 00E#B68021AE00000000
(1779393564.682761) can0 02000100#0000
(1779393564.692766) can0 02000100#0000
(1779393564.702776) can0 02000100#0000
(1779393564.703761) can0 03C30F0F#87878787878787
(1779393564.705160) can0 1C0C0000#64
(1779393564.712757) can0 02000100#0000
(1779393564.715254) can0 14300000#0000
(1779393564.722780) can0 02000100#0000
(1779393564.726956) can0 00E#B68021AE00000000
(1779393564.732760) can0 02000100#0000
(1779393564.742762) can0 02000100#0000
(1779393564.752761) can0 02000100#0000
(1779393564.762763) can0 02000100#0000
(1779393564.769086) can0 1C2C0100#36390C95051A
(1779393564.772771) can0 02000100#0000
(1779393564.776997) can0 00E#B68021AE00000000
(1779393564.782775) can0 02000100#0000
(1779393564.792793) can0 02000100#0000
(1779393564.795663) can0 1C300004#642F4A00D12C4A00
(1779393564.802804) can0 02000100#0000
(1779393564.803796) can0 03C30F0F#87878787878787
(1779393564.812780) can0 02000100#0000
(1779393564.822807) can0 02000100#0000
(1779393564.826985) can0 00E#B68021AE00000000
(1779393564.832781) can0 02000100#0000
(1779393564.842786) can0 02000100#0000
(1779393564.845268) can0 140C0001#0000
(1779393564.852793) can0 02000100#0000
(1779393564.862782) can0 02000100#0000
(1779393564.872785) can0 02000100#0000
(1779393564.877012) can0 00E#B68021AE00000000
(1779393564.882781) can0 02000100#0000
(1779393564.892803) can0 02000100#0000
(1779393564.902827) can0 02000100#0000
(1779393564.903808) can0 03C30F0F#87878787878787
(1779393564.912803) can0 02000100#0000
(1779393564.922801) can0 02000100#0000
(1779393564.927012) can0 00E#B68021AE00000000
(1779393564.932814) can0 02000100#0000
(1779393564.942789) can0 02000100#0000
(1779393564.952802) can0 02000100#0000
(1779393564.962792) can0 02000100#0000
(1779393564.965245) can0 14300000#0000
(1779393564.972791) can0 02000100#0000
(1779393564.977014) can0 00E#B68021AE00000000
(1779393564.982795) can0 02000100#0000
(1779393564.992815) can0 02000100#0000
(1779393565.002828) can0 02000100#0000
(1779393565.003817) can0 03C30F0F#87878787878787
(1779393565.012815) can0 02000100#0000
(1779393565.022813) can0 02000100#0000
(1779393565.026998) can0 00E#B68021AE00000000
(1779393565.032795) can0 02000100#0000
(1779393565.042789) can0 02000100#0000
(1779393565.052798) can0 02000100#0000
(1779393565.062799) can0 02000100#0000
(1779393565.072799) can0 02000100#0000
(1779393565.077030) can0 00E#B68021AE00000000
(1779393565.082821) can0 02000100#0000
(1779393565.092815) can0 02000100#0000
(1779393565.095259) can0 140C0001#0000
(1779393565.102825) can0 02000100#0000
(1779393565.103813) can0 03C30F0F#87878787878787
(1779393565.112807) can0 02000100#0000
(1779393565.122813) can0 02000100#0000
(1779393565.127021) can0 00E#B68021AE00000000
(1779393565.132822) can0 02000100#0000
(1779393565.142797) can0 02000100#0000
(1779393565.152821) can0 02000100#0000
(1779393565.154001) can0 181C0F00#0160800000000000
(1779393565.162814) can0 02000100#0000
(1779393565.172809) can0 02000100#0000
(1779393565.177034) can0 00E#B68021AE00000000
(1779393565.178856) can0 78F#4080000001000001
(1779393565.179977) can0 790#2F80000000000000
(1779393565.182823) can0 02000100#0000
(1779393565.192832) can0 02000100#0000
(1779393565.202846) can0 02000100#0000
(1779393565.203831) can0 03C30F0F#87878787878787
(1779393565.212826) can0 02000100#0000
(1779393565.215252) can0 14300000#0000
(1779393565.222812) can0 02000100#0000
(1779393565.227018) can0 00E#B68021AE00000000
(1779393565.232826) can0 02000100#0000
(1779393565.242822) can0 02000100#0000
(1779393565.252812) can0 02000100#0000
(1779393565.255467) can0 0C140200#C2
(1779393565.262837) can0 02000100#0000
(1779393565.272827) can0 02000100#0000
(1779393565.277050) can0 00E#B68021AE00000000
(1779393565.282841) can0 02000100#0000
(1779393565.292842) can0 02000100#0000
(1779393565.302857) can0 02000100#0000
(1779393565.303837) can0 03C30F0F#87878787878787
(1779393565.312850) can0 02000100#0000
(1779393565.322838) can0 02000100#0000
(1779393565.327046) can0 00E#B68021AE00000000
(1779393565.332845) can0 02000100#0000
(1779393565.342838) can0 02000100#0000
(1779393565.345259) can0 140C0001#0000
(1779393565.352836) can0 02000100#0000
(1779393565.362843) can0 02000100#0000
(1779393565.372836) can0 02000100#0000
(1779393565.375169) can0 0C140000#C0
(1779393565.377060) can0 00E#B68021AE00000000
(1779393565.382844) can0 02000100#0000
(1779393565.392854) can0 02000100#0000
(1779393565.402895) can0 02000100#0000
(1779393565.403858) can0 03C30F0F#87878787878787
(1779393565.412882) can0 02000100#0000
(1779393565.422849) can0 02000100#0000
(1779393565.427052) can0 00E#B68021AE00000000
(1779393565.432863) can0 02000100#0000
(1779393565.442851) can0 02000100#0000
(1779393565.452849) can0 02000100#0000
(1779393565.462856) can0 02000100#0000
(1779393565.465246) can0 14300000#0000
(1779393565.472857) can0 02000100#0000
(1779393565.475161) can0 0C140000#C1
(1779393565.477083) can0 00E#B68021AE00000000
(1779393565.482849) can0 02000100#0000
(1779393565.492861) can0 02000100#0000
(1779393565.502893) can0 02000100#0000
(1779393565.503871) can0 03C30F0F#87878787878787
(1779393565.512882) can0 02000100#0000
(1779393565.522878) can0 02000100#0000
(1779393565.527068) can0 00E#B68021AE00000000
(1779393565.532905) can0 02000100#0000
(1779393565.542901) can0 02000100#0000
(1779393565.552876) can0 02000100#0000
(1779393565.562879) can0 02000100#0000
(1779393565.572873) can0 02000100#0000
(1779393565.577093) can0 00E#B68021AE00000000
(1779393565.582873) can0 02000100#0000
(1779393565.592893) can0 02000100#0000
(1779393565.595259) can0 140C0001#0000
(1779393565.602907) can0 02000100#0000
(1779393565.603896) can0 03C30F0F#87878787878787
(1779393565.612911) can0 02000100#0000
(1779393565.622882) can0 02000100#0000
(1779393565.627081) can0 00E#B68021AE00000000
(1779393565.632887) can0 02000100#0000
(1779393565.642888) can0 02000100#0000
(1779393565.652885) can0 02000100#0000
(1779393565.662876) can0 02000100#0000
(1779393565.672888) can0 02000100#0000
(1779393565.677112) can0 00E#B68021AE00000000
(1779393565.682888) can0 02000100#0000
(1779393565.689136) can0 78F#4080000001000001
(1779393565.690270) can0 790#2F80000000000000
(1779393565.692886) can0 02000100#0000
(1779393565.702907) can0 02000100#0000
(1779393565.703895) can0 03C30F0F#87878787878787
(1779393565.705176) can0 1C0C0000#64
(1779393565.712897) can0 02000100#0000
(1779393565.715262) can0 14300000#0000
(1779393565.722900) can0 02000100#0000
(1779393565.727088) can0 00E#B68021AE00000000
(1779393565.732889) can0 02000100#0000
(1779393565.742902) can0 02000100#0000
(1779393565.752897) can0 02000100#0000
(1779393565.762886) can0 02000100#0000
(1779393565.769214) can0 1C2C0100#37390C95051A
(1779393565.772901) can0 02000100#0000
(1779393565.777119) can0 00E#B68021AE00000000
(1779393565.782898) can0 02000100#0000
(1779393565.792907) can0 02000100#0000
(1779393565.802917) can0 02000100#0000
(1779393565.803906) can0 03C30F0F#87878787878787
(1779393565.805693) can0 1C300004#642F4A00D12C4A00
(1779393565.812925) can0 02000100#0000
(1779393565.822930) can0 02000100#0000
(1779393565.827111) can0 00E#B68021AE00000000
(1779393565.832914) can0 02000100#0000
(1779393565.842902) can0 02000100#0000
(1779393565.845268) can0 140C0001#0000
(1779393565.852907) can0 02000100#0000
(1779393565.862903) can0 02000100#0000
(1779393565.872908) can0 02000100#0000
(1779393565.877136) can0 00E#B68021AE00000000
(1779393565.882904) can0 02000100#0000
(1779393565.892914) can0 02000100#0000
(1779393565.902936) can0 02000100#0000
(1779393565.903927) can0 03C30F0F#87878787878787
(1779393565.912930) can0 02000100#0000
(1779393565.922927) can0 02000100#0000
(1779393565.927117) can0 00E#B68021AE00000000
(1779393565.932930) can0 02000100#0000
(1779393565.942918) can0 02000100#0000
(1779393565.952930) can0 02000100#0000
(1779393565.962921) can0 02000100#0000
(1779393565.965248) can0 14300000#0000
(1779393565.972917) can0 02000100#0000
(1779393565.977151) can0 00E#B68021AE00000000
(1779393565.982918) can0 02000100#0000
(1779393565.992924) can0 02000100#0000
(1779393566.002944) can0 02000100#0000
(1779393566.003933) can0 03C30F0F#87878787878787
(1779393566.012949) can0 02000100#0000
(1779393566.022957) can0 02000100#0000
(1779393566.027130) can0 00E#B68021AE00000000
(1779393566.032937) can0 02000100#0000
(1779393566.042928) can0 02000100#0000
(1779393566.052938) can0 02000100#0000
(1779393566.062934) can0 02000100#0000
(1779393566.072930) can0 02000100#0000
(1779393566.077154) can0 00E#B68021AE00000000
(1779393566.082939) can0 02000100#0000
(1779393566.092933) can0 02000100#0000
(1779393566.095260) can0 140C0001#0000
(1779393566.102963) can0 02000100#0000
(1779393566.103957) can0 03C30F0F#87878787878787
(1779393566.112943) can0 02000100#0000
(1779393566.122957) can0 02000100#0000
(1779393566.127162) can0 00E#B68021AE00000000
(1779393566.132976) can0 02000100#0000
(1779393566.142966) can0 02000100#0000
(1779393566.152960) can0 02000100#0000
(1779393566.162950) can0 02000100#0000
(1779393566.172933) can0 02000100#0000
(1779393566.177173) can0 00E#B68021AE00000000
(1779393566.182955) can0 02000100#0000
(1779393566.192942) can0 02000100#0000
(1779393566.199142) can0 78F#4080000001000001
(1779393566.200278) can0 790#2F80000000000000
(1779393566.202970) can0 02000100#0000
(1779393566.203963) can0 03C30F0F#87878787878787
(1779393566.212957) can0 02000100#0000
(1779393566.215251) can0 14300000#0000
(1779393566.223001) can0 02000100#0000
(1779393566.227163) can0 00E#B68021AE00000000
(1779393566.232974) can0 02000100#0000
(1779393566.242959) can0 02000100#0000
(1779393566.252294) can0 0C140200#C2
(1779393566.253040) can0 02000100#0000
(1779393566.262964) can0 02000100#0000
(1779393566.272960) can0 02000100#0000
(1779393566.277183) can0 00E#B68021AE00000000
(1779393566.282952) can0 02000100#0000
(1779393566.292959) can0 02000100#0000
(1779393566.302974) can0 02000100#0000
(1779393566.303966) can0 03C30F0F#87878787878787
(1779393566.312983) can0 02000100#0000
(1779393566.322989) can0 02000100#0000
(1779393566.327173) can0 00E#B68021AE00000000
(1779393566.332977) can0 02000100#0000
(1779393566.342979) can0 02000100#0000
(1779393566.345269) can0 140C0001#0000
(1779393566.352965) can0 02000100#0000
(1779393566.362985) can0 02000100#0000
(1779393566.372973) can0 02000100#0000
(1779393566.375186) can0 0C140000#C0
(1779393566.377208) can0 00E#B68021AE00000000
(1779393566.382995) can0 02000100#0000
(1779393566.392989) can0 02000100#0000
(1779393566.403003) can0 02000100#0000
(1779393566.403997) can0 03C30F0F#87878787878787
(1779393566.413013) can0 02000100#0000
(1779393566.423011) can0 02000100#0000
(1779393566.427209) can0 00E#B68021AE00000000
(1779393566.433002) can0 02000100#0000
(1779393566.443005) can0 02000100#0000
(1779393566.453006) can0 02000100#0000
(1779393566.463008) can0 02000100#0000
(1779393566.465264) can0 14300000#0000
(1779393566.473000) can0 02000100#0000
(1779393566.475187) can0 0C140000#C1
(1779393566.477226) can0 00E#B68021AE00000000
(1779393566.482994) can0 02000100#0000
(1779393566.493011) can0 02000100#0000
(1779393566.503015) can0 02000100#0000
(1779393566.504004) can0 03C30F0F#87878787878787
(1779393566.513031) can0 02000100#0000
(1779393566.523027) can0 02000100#0000
(1779393566.527233) can0 00E#B68021AE00000000
(1779393566.533062) can0 02000100#0000
(1779393566.543076) can0 02000100#0000
(1779393566.553033) can0 02000100#0000
(1779393566.563026) can0 02000100#0000
(1779393566.573043) can0 02000100#0000
(1779393566.577235) can0 00E#B68021AE00000000
(1779393566.583005) can0 02000100#0000
(1779393566.593022) can0 02000100#0000
(1779393566.595301) can0 140C0001#0000
(1779393566.603025) can0 02000100#0000
(1779393566.604021) can0 03C30F0F#87878787878787
(1779393566.613026) can0 02000100#0000
(1779393566.623033) can0 02000100#0000
(1779393566.627240) can0 00E#B68021AE00000000
(1779393566.633031) can0 02000100#0000
(1779393566.643036) can0 02000100#0000
(1779393566.653028) can0 02000100#0000
(1779393566.663027) can0 02000100#0000
(1779393566.673045) can0 02000100#0000
(1779393566.677268) can0 00E#B68021AE00000000
(1779393566.683024) can0 02000100#0000
(1779393566.693033) can0 02000100#0000
(1779393566.703049) can0 02000100#0000
(1779393566.704040) can0 03C30F0F#87878787878787
(1779393566.705179) can0 1C0C0000#64
(1779393566.709201) can0 78F#4080000001000001
(1779393566.710337) can0 790#2F80000000000000
(1779393566.713030) can0 02000100#0000
(1779393566.715261) can0 14300000#0000
(1779393566.723037) can0 02000100#0000
(1779393566.727234) can0 00E#B68021AE00000000
(1779393566.733050) can0 02000100#0000
(1779393566.743051) can0 02000100#0000
(1779393566.753049) can0 02000100#0000
(1779393566.763053) can0 02000100#0000
(1779393566.769376) can0 1C2C0100#38390C95051A
(1779393566.773068) can0 02000100#0000
(1779393566.777270) can0 00E#B68021AE00000000
(1779393566.783040) can0 02000100#0000
(1779393566.793048) can0 02000100#0000
(1779393566.803064) can0 02000100#0000
(1779393566.804057) can0 03C30F0F#87878787878787
(1779393566.813044) can0 02000100#0000
(1779393566.815667) can0 1C300004#642F4A00D12C4A00
(1779393566.823071) can0 02000100#0000
(1779393566.827256) can0 00E#B68021AE00000000
(1779393566.833076) can0 02000100#0000
(1779393566.843078) can0 02000100#0000
(1779393566.845307) can0 140C0001#0000
(1779393566.853081) can0 02000100#0000
(1779393566.863072) can0 02000100#0000
(1779393566.869722) can0 1C240F01#
(1779393566.873079) can0 02000100#0000
(1779393566.877281) can0 00E#B68021AE00000000
(1779393566.883057) can0 02000100#0000
(1779393566.893052) can0 02000100#0000
(1779393566.903076) can0 02000100#0000
(1779393566.904068) can0 03C30F0F#87878787878787
(1779393566.913064) can0 02000100#0000
(1779393566.923073) can0 02000100#0000
(1779393566.927267) can0 00E#B68021AE00000000
(1779393566.933074) can0 02000100#0000
(1779393566.943090) can0 02000100#0000
(1779393566.953104) can0 02000100#0000
(1779393566.963087) can0 02000100#0000
(1779393566.965291) can0 14300000#0000
(1779393566.973081) can0 02000100#0000
(1779393566.977301) can0 00E#B68021AE00000000
(1779393566.983060) can0 02000100#0000
(1779393566.993066) can0 02000100#0000
(1779393567.003099) can0 02000100#0000
(1779393567.004088) can0 03C30F0F#87878787878787
(1779393567.013063) can0 02000100#0000
(1779393567.023084) can0 02000100#0000
(1779393567.027295) can0 00E#B68021AE00000000
(1779393567.033073) can0 02000100#0000
(1779393567.043097) can0 02000100#0000
(1779393567.053115) can0 02000100#0000
(1779393567.063098) can0 02000100#0000
(1779393567.073114) can0 02000100#0000
(1779393567.077296) can0 00E#B68021AE00000000
(1779393567.083074) can0 02000100#0000
(1779393567.093077) can0 02000100#0000
(1779393567.095304) can0 140C0001#0000
(1779393567.103101) can0 02000100#0000
(1779393567.104088) can0 03C30F0F#87878787878787
(1779393567.113085) can0 02000100#0000
(1779393567.123091) can0 02000100#0000
(1779393567.127314) can0 00E#B68021AE00000000
(1779393567.133096) can0 02000100#0000
(1779393567.143104) can0 02000100#0000
(1779393567.153101) can0 02000100#0000
(1779393567.163087) can0 02000100#0000
(1779393567.173098) can0 02000100#0000
(1779393567.177336) can0 00E#B68021AE00000000
(1779393567.183104) can0 02000100#0000
(1779393567.193100) can0 02000100#0000
(1779393567.203122) can0 02000100#0000
(1779393567.204117) can0 03C30F0F#87878787878787
(1779393567.213102) can0 02000100#0000
(1779393567.215268) can0 14300000#0000
(1779393567.219296) can0 78F#4080000001000001
(1779393567.220397) can0 790#2F80000000000000
(1779393567.223094) can0 02000100#0000
(1779393567.227336) can0 00E#B68021AE00000000
(1779393567.233119) can0 02000100#0000
(1779393567.243138) can0 02000100#0000
(1779393567.249498) can0 0C140200#C2
(1779393567.253126) can0 02000100#0000
(1779393567.263130) can0 02000100#0000
(1779393567.273131) can0 02000100#0000
(1779393567.277342) can0 00E#B68021AE00000000
(1779393567.283116) can0 02000100#0000
(1779393567.293107) can0 02000100#0000
(1779393567.303131) can0 02000100#0000
(1779393567.304120) can0 03C30F0F#87878787878787
(1779393567.313122) can0 02000100#0000
(1779393567.323123) can0 02000100#0000
(1779393567.327325) can0 00E#B68021AE00000000
(1779393567.333125) can0 02000100#0000
(1779393567.343115) can0 02000100#0000
(1779393567.345310) can0 140C0001#0000
(1779393567.353178) can0 02000100#0000
(1779393567.363156) can0 02000100#0000
(1779393567.373160) can0 02000100#0000
(1779393567.375216) can0 0C140000#C0
(1779393567.377365) can0 00E#B68021AE00000000
(1779393567.383140) can0 02000100#0000
(1779393567.393146) can0 02000100#0000
(1779393567.403143) can0 02000100#0000
(1779393567.404132) can0 03C30F0F#87878787878787
(1779393567.413140) can0 02000100#0000
(1779393567.423125) can0 02000100#0000
(1779393567.427335) can0 00E#B68021AE00000000
(1779393567.433137) can0 02000100#0000
(1779393567.443142) can0 02000100#0000
(1779393567.453151) can0 02000100#0000
(1779393567.463169) can0 02000100#0000
(1779393567.465296) can0 14300000#0000
(1779393567.473167) can0 02000100#0000
(1779393567.475199) can0 0C140000#C1
(1779393567.477374) can0 00E#B68021AE00000000
(1779393567.483148) can0 02000100#0000
(1779393567.493157) can0 02000100#0000
(1779393567.503170) can0 02000100#0000
(1779393567.504146) can0 03C30F0F#87878787878787
(1779393567.513144) can0 02000100#0000
(1779393567.523136) can0 02000100#0000
(1779393567.527335) can0 00E#B68021AE00000000
(1779393567.533179) can0 02000100#0000
(1779393567.543167) can0 02000100#0000
(1779393567.553167) can0 02000100#0000
(1779393567.563160) can0 02000100#0000
(1779393567.573166) can0 02000100#0000
(1779393567.577377) can0 00E#B68021AE00000000
(1779393567.583148) can0 02000100#0000
(1779393567.593166) can0 02000100#0000
(1779393567.595307) can0 140C0001#0000
(1779393567.603171) can0 02000100#0000
(1779393567.604157) can0 03C30F0F#87878787878787
(1779393567.613158) can0 02000100#0000
(1779393567.623159) can0 02000100#0000
(1779393567.627358) can0 00E#B68021AE00000000
(1779393567.633151) can0 02000100#0000
(1779393567.643176) can0 02000100#0000
(1779393567.653181) can0 02000100#0000
(1779393567.663180) can0 02000100#0000
(1779393567.673183) can0 02000100#0000
(1779393567.677395) can0 00E#B68021AE00000000
(1779393567.683168) can0 02000100#0000
(1779393567.693179) can0 02000100#0000
(1779393567.703187) can0 02000100#0000
(1779393567.704177) can0 03C30F0F#87878787878787
(1779393567.705183) can0 1C0C0000#64
(1779393567.713177) can0 02000100#0000
(1779393567.715315) can0 14300000#0000
(1779393567.723176) can0 02000100#0000
(1779393567.727374) can0 00E#B68021AE00000000
(1779393567.729819) can0 78F#4080000001000001
(1779393567.730955) can0 790#2F80000000000000
(1779393567.733169) can0 02000100#0000
(1779393567.743185) can0 02000100#0000
(1779393567.753184) can0 02000100#0000
(1779393567.763193) can0 02000100#0000
(1779393567.769515) can0 1C2C0100#39390C95051A
(1779393567.773196) can0 02000100#0000
(1779393567.777411) can0 00E#B68021AE00000000
(1779393567.783181) can0 02000100#0000
(1779393567.793189) can0 02000100#0000
(1779393567.803204) can0 02000100#0000
(1779393567.804196) can0 03C30F0F#87878787878787
(1779393567.813185) can0 02000100#0000
(1779393567.823198) can0 02000100#0000
(1779393567.825674) can0 1C300004#642F4A00D12C4A00
(1779393567.827381) can0 00E#B68021AE00000000
(1779393567.833184) can0 02000100#0000
(1779393567.843193) can0 02000100#0000
(1779393567.845290) can0 140C0001#0000
(1779393567.853197) can0 02000100#0000
(1779393567.863236) can0 02000100#0000
(1779393567.873254) can0 02000100#0000
(1779393567.877439) can0 00E#B68021AE00000000
(1779393567.883185) can0 02000100#0000
(1779393567.893199) can0 02000100#0000
(1779393567.903205) can0 02000100#0000
(1779393567.904195) can0 03C30F0F#87878787878787
(1779393567.913195) can0 02000100#0000
(1779393567.923203) can0 02000100#0000
(1779393567.927401) can0 00E#B68021AE00000000
(1779393567.933198) can0 02000100#0000
(1779393567.943198) can0 02000100#0000
(1779393567.953197) can0 02000100#0000
(1779393567.963208) can0 02000100#0000
(1779393567.965273) can0 14300000#0000
(1779393567.973206) can0 02000100#0000
(1779393567.977450) can0 00E#B68021AE00000000
(1779393567.983209) can0 02000100#0000
(1779393567.993202) can0 02000100#0000
(1779393568.003248) can0 02000100#0000
(1779393568.004236) can0 03C30F0F#87878787878787
(1779393568.013220) can0 02000100#0000
(1779393568.023221) can0 02000100#0000
(1779393568.027424) can0 00E#B68021AE00000000
(1779393568.033225) can0 02000100#0000
(1779393568.043222) can0 02000100#0000
(1779393568.053246) can0 02000100#0000
(1779393568.063248) can0 02000100#0000
(1779393568.073262) can0 02000100#0000
(1779393568.077474) can0 00E#B68021AE00000000
(1779393568.083234) can0 02000100#0000
(1779393568.093220) can0 02000100#0000
(1779393568.095323) can0 140C0001#0000
(1779393568.103241) can0 02000100#0000
(1779393568.104231) can0 03C30F0F#87878787878787
(1779393568.113231) can0 02000100#0000
(1779393568.123227) can0 02000100#0000
(1779393568.127424) can0 00E#B68021AE00000000
(1779393568.133225) can0 02000100#0000
(1779393568.143235) can0 02000100#0000
(1779393568.153249) can0 02000100#0000
(1779393568.163261) can0 02000100#0000
(1779393568.173261) can0 02000100#0000
(1779393568.177459) can0 00E#B68021AE00000000
(1779393568.183233) can0 02000100#0000
(1779393568.193231) can0 02000100#0000
(1779393568.203253) can0 02000100#0000
(1779393568.204244) can0 03C30F0F#87878787878787
(1779393568.213238) can0 02000100#0000
(1779393568.215313) can0 14300000#0000
(1779393568.223232) can0 02000100#0000
(1779393568.227440) can0 00E#B68021AE00000000
(1779393568.233242) can0 02000100#0000
(1779393568.239261) can0 78F#4080000001000001
(1779393568.240394) can0 790#2F80000000000000
(1779393568.243240) can0 02000100#0000
(1779393568.245955) can0 0C140200#C2
(1779393568.253245) can0 02000100#0000
(1779393568.263242) can0 02000100#0000
(1779393568.273264) can0 02000100#0000
(1779393568.277485) can0 00E#B68021AE00000000
(1779393568.283298) can0 02000100#0000
(1779393568.293262) can0 02000100#0000
(1779393568.303324) can0 02000100#0000
(1779393568.304263) can0 03C30F0F#87878787878787
(1779393568.313262) can0 02000100#0000
(1779393568.323249) can0 02000100#0000
(1779393568.327460) can0 00E#B68021AE00000000
(1779393568.333270) can0 02000100#0000
(1779393568.343251) can0 02000100#0000
(1779393568.345294) can0 140C0001#0000
(1779393568.353264) can0 02000100#0000
(1779393568.363310) can0 02000100#0000
(1779393568.373296) can0 02000100#0000
(1779393568.375212) can0 0C140000#C0
(1779393568.377495) can0 00E#B68021AE00000000
(1779393568.383312) can0 02000100#0000
(1779393568.393273) can0 02000100#0000
(1779393568.403301) can0 02000100#0000
(1779393568.404269) can0 03C30F0F#87878787878787
(1779393568.413266) can0 02000100#0000
(1779393568.423260) can0 02000100#0000
(1779393568.427460) can0 00E#B68021AE00000000
(1779393568.433274) can0 02000100#0000
(1779393568.443315) can0 02000100#0000
(1779393568.453263) can0 02000100#0000
(1779393568.463305) can0 02000100#0000
(1779393568.465281) can0 14300000#0000
(1779393568.473286) can0 02000100#0000
(1779393568.475202) can0 0C140000#C1
(1779393568.477501) can0 00E#B68021AE00000000
(1779393568.483298) can0 02000100#0000
(1779393568.493285) can0 02000100#0000
(1779393568.503338) can0 02000100#0000
(1779393568.504283) can0 03C30F0F#87878787878787
(1779393568.513288) can0 02000100#0000
(1779393568.523301) can0 02000100#0000
(1779393568.527474) can0 00E#B68021AE00000000
(1779393568.533320) can0 02000100#0000
(1779393568.543352) can0 02000100#0000
(1779393568.553288) can0 02000100#0000
(1779393568.563312) can0 02000100#0000
(1779393568.573302) can0 02000100#0000
(1779393568.577537) can0 00E#B68021AE00000000
(1779393568.583326) can0 02000100#0000
(1779393568.593299) can0 02000100#0000
(1779393568.595321) can0 140C0001#0000
(1779393568.603363) can0 02000100#0000
(1779393568.604304) can0 03C30F0F#87878787878787
(1779393568.613307) can0 02000100#0000
(1779393568.623318) can0 02000100#0000
(1779393568.627485) can0 00E#B68021AE00000000
(1779393568.633286) can0 02000100#0000
(1779393568.643329) can0 02000100#0000
(1779393568.653293) can0 02000100#0000
(1779393568.663335) can0 02000100#0000
(1779393568.665865) can0 181C0F00#0160800000000000
(1779393568.666827) can0 78F#40C8000004000001
(1779393568.673300) can0 02000100#0000
(1779393568.677545) can0 00E#B68021AE00000000
(1779393568.683334) can0 02000100#0000
(1779393568.693315) can0 02000100#0000
(1779393568.703334) can0 02000100#0000
(1779393568.704298) can0 03C30F0F#87878787878787
(1779393568.705182) can0 1C0C0000#64
(1779393568.713295) can0 02000100#0000
(1779393568.714502) can0 790#2FC800002C851CA4
(1779393568.715329) can0 14300000#0000
(1779393568.723323) can0 02000100#0000
(1779393568.727494) can0 00E#B68021AE00000000
(1779393568.733295) can0 02000100#0000
(1779393568.734284) can0 78F#208000001F000000
(1779393568.735585) can0 790#4F80000000000000
(1779393568.740509) can0 78F#2081000001000100
(1779393568.742029) can0 790#4F81000000000000
(1779393568.743313) can0 02000100#0000
(1779393568.753299) can0 02000100#0000
(1779393568.763339) can0 02000100#0000
(1779393568.769655) can0 1C2C0100#3A390C95051A
(1779393568.773305) can0 02000100#0000
(1779393568.777559) can0 00E#B68021AE00000000
(1779393568.783355) can0 02000100#0000
(1779393568.793334) can0 02000100#0000
(1779393568.795770) can0 78F#2081000001000100
(1779393568.797323) can0 790#4F81000000000000
(1779393568.801421) can0 78F#4088000004000001
(1779393568.802568) can0 790#2F88000001000100
(1779393568.803336) can0 02000100#0000
(1779393568.804317) can0 03C30F0F#87878787878787
(1779393568.807066) can0 78F#4089000002000001
(1779393568.808193) can0 790#2F89000026000000
(1779393568.812290) can0 78F#4086000004000001
(1779393568.813408) can0 790#2F860000D6010000
(1779393568.814145) can0 02000100#0000
(1779393568.817931) can0 78F#408C0000D6010001
(1779393568.823322) can0 02000100#0000
(1779393568.827516) can0 00E#B68021AE00000000
(1779393568.833323) can0 02000100#0000
(1779393568.835689) can0 1C300004#642F4A00D12C4A00
(1779393568.843321) can0 02000100#0000
(1779393568.844696) can0 790#0F8C0000D6010000
(1779393568.845422) can0 140C0001#0000
(1779393568.846555) can0 1E420001#1CFF040101A70204
(1779393568.849313) can0 1E3F0001#
(1779393568.850913) can0 1E420002#05070203011E0BD8
(1779393568.853325) can0 02000100#0000
(1779393568.853898) can0 1E3F0002#
(1779393568.856089) can0 1E420003#2C012C01E8FDA00F
(1779393568.858834) can0 1E3F0003#
(1779393568.860447) can0 1E420004#A00F78E6FF012228
(1779393568.863322) can0 02000100#0000
(1779393568.863880) can0 1E3F0004#
(1779393568.873694) can0 1E420005#280064020532500F
(1779393568.874398) can0 02000100#0000
(1779393568.876430) can0 1E3F0005#
(1779393568.877563) can0 00E#B68021AE00000000
(1779393568.878649) can0 1E420006#2319013C23256401
(1779393568.881459) can0 1E3F0006#
(1779393568.883114) can0 1E420007#0A01000000080101
(1779393568.883847) can0 02000100#0000
(1779393568.885829) can0 1E3F0007#
(1779393568.887460) can0 1E420008#0000006401640119
(1779393568.890172) can0 1E3F0008#
(1779393568.891737) can0 1E420009#0146013C01640146
(1779393568.893330) can0 02000100#0000
(1779393568.894990) can0 1E3F0009#
(1779393568.896623) can0 1E42000A#0146015001647819
(1779393568.899381) can0 1E3F000A#
(1779393568.900914) can0 1E42000B#78643C014601289A
(1779393568.903347) can0 02000100#0000
(1779393568.904336) can0 03C30F0F#87878787878787
(1779393568.904902) can0 1E3F000B#
(1779393568.906548) can0 1E42000C#1500000000000000
(1779393568.909278) can0 1E3F000C#
(1779393568.910951) can0 1E42000D#0000000000010034
(1779393568.913324) can0 02000100#0000
(1779393568.913893) can0 1E3F000D#
(1779393568.916104) can0 1E42000E#00E80323000C0046
(1779393568.918823) can0 1E3F000E#
(1779393568.920493) can0 1E42000F#0000000064400001
(1779393568.923342) can0 02000100#0000
(1779393568.923905) can0 1E3F000F#
(1779393568.926119) can0 1E420010#1E3203E80300000A
(1779393568.927534) can0 00E#B68021AE00000000
(1779393568.929281) can0 1E3F0010#
(1779393568.930897) can0 1E420011#3264000100370A0A
(1779393568.933326) can0 02000100#0000
(1779393568.933905) can0 1E3F0011#
(1779393568.936073) can0 1E420012#0000966464640605
(1779393568.938914) can0 1E3F0012#
(1779393568.940493) can0 1E420013#504032321E0A0000
(1779393568.943337) can0 02000100#0000
(1779393568.943910) can0 1E3F0013#
(1779393568.946074) can0 1E420014#32FA2800463C3204
(1779393568.948761) can0 1E3F0014#
(1779393568.950361) can0 1E420015#20400000E803F401
(1779393568.953152) can0 1E3F0015#
(1779393568.953891) can0 02000100#0000
(1779393568.955005) can0 1E420016#4000414600463C58
(1779393568.957777) can0 1E3F0016#
(1779393568.959344) can0 1E420017#020A64640002143C
(1779393568.962135) can0 1E3F0017#
(1779393568.963336) can0 02000100#0000
(1779393568.964433) can0 1E420018#550219324BFF6432
(1779393568.965281) can0 14300000#0000
(1779393568.967151) can0 1E3F0018#
(1779393568.973339) can0 02000100#0000
(1779393568.974479) can0 1E420019#1900000001001932
(1779393568.977567) can0 00E#B68021AE00000000
(1779393568.978140) can0 1E3F0019#
(1779393568.979730) can0 1E42001A#6400000200193264
(1779393568.982457) can0 1E3F001A#
(1779393568.983345) can0 02000100#0000
(1779393568.984470) can0 1E42001B#0000FF6464646400
(1779393568.987217) can0 1E3F001B#
(1779393568.988854) can0 1E42001C#00FF646464640000
(1779393568.991604) can0 1E3F001C#
(1779393568.993259) can0 1E42001D#FF0000FF00001AFD
(1779393568.993991) can0 02000100#0000
(1779393568.996016) can0 1E3F001D#
(1779393568.997647) can0 1E42001E#320D140B0C07120C
(1779393569.000449) can0 1E3F001E#
(1779393569.002055) can0 1E42001F#140A28190F0F0F0A
(1779393569.003361) can0 02000100#0000
(1779393569.004345) can0 03C30F0F#87878787878787
(1779393569.005145) can0 1E3F001F#
(1779393569.006731) can0 1E420020#0C0A5046001E2D64
(1779393569.009459) can0 1E3F0020#
(1779393569.011081) can0 1E420021#3232000191FC640D
(1779393569.013333) can0 02000100#0000
(1779393569.014566) can0 1E3F0021#
(1779393569.016131) can0 1E420022#190B1007120C140A
(1779393569.018863) can0 1E3F0022#
(1779393569.020470) can0 1E420023#46190F0F190A0F0A
(1779393569.023150) can0 1E3F0023#
(1779393569.023888) can0 02000100#0000
(1779393569.024980) can0 1E420024#6446001E3C643232
(1779393569.027538) can0 00E#B68021AE00000000
(1779393569.028108) can0 1E3F0024#
(1779393569.029703) can0 1E420025#000106FD320D140B
(1779393569.032491) can0 1E3F0025#
(1779393569.033357) can0 02000100#0000
(1779393569.034464) can0 1E420026#0C07120C140A2819
(1779393569.037179) can0 1E3F0026#
(1779393569.038794) can0 1E420027#0F0F0F0A0C0A6446
(1779393569.041476) can0 1E3F0027#
(1779393569.043094) can0 1E420028#001E2D6432320001
(1779393569.043821) can0 02000100#0000
(1779393569.045914) can0 1E3F0028#
(1779393569.047486) can0 1E420029#91FC640D190B1007
(1779393569.050161) can0 1E3F0029#
(1779393569.051728) can0 1E42002A#120C140A46190F0F
(1779393569.053353) can0 02000100#0000
(1779393569.054933) can0 1E3F002A#
(1779393569.056518) can0 1E42002B#190A0F0A6446001E
(1779393569.059327) can0 1E3F002B#
(1779393569.060906) can0 1E42002C#3C643232000106FD
(1779393569.063342) can0 02000100#0000
(1779393569.063920) can0 1E3F002C#
(1779393569.066072) can0 1E42002D#320D140B0C07120C
(1779393569.068847) can0 1E3F002D#
(1779393569.073354) can0 02000100#0000
(1779393569.074458) can0 1E42002E#140A28190F0F0F0A
(1779393569.077601) can0 00E#B68021AE00000000
(1779393569.078159) can0 1E3F002E#
(1779393569.079715) can0 1E42002F#0C0A6446001E2D64
(1779393569.082398) can0 1E3F002F#
(1779393569.083399) can0 02000100#0000
(1779393569.084491) can0 1E420030#3232000191FC640D
(1779393569.087332) can0 1E3F0030#
(1779393569.088892) can0 1E420031#190B1007120C140A
(1779393569.091613) can0 1E3F0031#
(1779393569.093206) can0 1E420032#46190F0F190A0F0A
(1779393569.093940) can0 02000100#0000
(1779393569.095336) can0 140C0001#0000
(1779393569.095904) can0 1E3F0032#
(1779393569.097443) can0 1E420033#6446001E3C643232
(1779393569.100227) can0 1E3F0033#
(1779393569.101847) can0 1E420034#000191FC640D190B
(1779393569.103378) can0 02000100#0000
(1779393569.104366) can0 03C30F0F#87878787878787
(1779393569.105206) can0 1E3F0034#
(1779393569.106822) can0 1E420035#1007120C140A4619
(1779393569.109567) can0 1E3F0035#
(1779393569.111132) can0 1E420036#0F0F190A0F0A6446
(1779393569.113360) can0 02000100#0000
(1779393569.113927) can0 1E3F0036#
(1779393569.116074) can0 1E420037#001E3C6432320001
(1779393569.118803) can0 1E3F0037#
(1779393569.120428) can0 1E420038#1DFD460B140B0904
(1779393569.123362) can0 02000100#0000
(1779393569.124589) can0 1E3F0038#
(1779393569.126186) can0 1E420039#0F0A190A2319140F
(1779393569.127557) can0 00E#B68021AE00000000
(1779393569.129255) can0 1E3F0039#
(1779393569.130903) can0 1E42003A#0F0A0C0A503C001E
(1779393569.133365) can0 02000100#0000
(1779393569.133939) can0 1E3F003A#
(1779393569.135797) can0 1E43003B#286432320001
(1779393569.138480) can0 1E3F003B#
(1779393569.139592) can0 790#8F8C000000000000
(1779393569.142984) can0 78F#808C000000000000
(1779393569.143726) can0 02000100#0000
(1779393569.153377) can0 02000100#0000
(1779393569.163357) can0 02000100#0000
(1779393569.173376) can0 02000100#0000
(1779393569.177587) can0 00E#B68021AE00000000
(1779393569.183373) can0 02000100#0000
(1779393569.185583) can0 78F#2081000002000100
(1779393569.193384) can0 02000100#0000
(1779393569.200112) can0 790#4F81000000000000
(1779393569.203393) can0 02000100#0000
(1779393569.204383) can0 03C30F0F#87878787878787
(1779393569.205358) can0 78F#2081000002000100
(1779393569.206964) can0 790#4F81000000000000
(1779393569.211025) can0 78F#4088000004000001
(1779393569.212149) can0 790#2F88000002000100
(1779393569.213366) can0 02000100#0000
(1779393569.215306) can0 14300000#0000
(1779393569.217214) can0 78F#4089000002000001
(1779393569.218340) can0 790#2F89000007000000
(1779393569.222515) can0 78F#4086000004000001
(1779393569.223612) can0 790#2F860000DA000000
(1779393569.224346) can0 02000100#0000
(1779393569.227562) can0 00E#B68021AE00000000
(1779393569.228516) can0 78F#408C0000DA000001
(1779393569.233377) can0 02000100#0000
(1779393569.241525) can0 790#0F8C0000DA000000
(1779393569.243114) can0 1E420001#ABFF050001040608
(1779393569.243851) can0 02000100#0000
(1779393569.244491) can0 0C140200#C2
(1779393569.246257) can0 1E3F0001#
(1779393569.247892) can0 1E420002#0C0302040324DDCB
(1779393569.250681) can0 1E3F0002#
(1779393569.252281) can0 1E420003#0000646464647878
(1779393569.253371) can0 02000100#0000
(1779393569.255365) can0 1E3F0003#
(1779393569.256904) can0 1E420004#0A01646464647878
(1779393569.259638) can0 1E3F0004#
(1779393569.261239) can0 1E420005#0A01646464647878
(1779393569.263387) can0 02000100#0000
(1779393569.264513) can0 1E3F0005#
(1779393569.266102) can0 1E420006#0A01646464647878
(1779393569.268848) can0 1E3F0006#
(1779393569.273375) can0 02000100#0000
(1779393569.274454) can0 1E420007#0A01646464647878
(1779393569.277172) can0 1E3F0007#
(1779393569.278138) can0 00E#B68021AE00000000
(1779393569.279228) can0 1E420008#0A01646464647878
(1779393569.281967) can0 1E3F0008#
(1779393569.283563) can0 1E420009#0A01010100021F00
(1779393569.284301) can0 02000100#0000
(1779393569.286252) can0 1E3F0009#
(1779393569.287891) can0 1E42000A#043D000810001008
(1779393569.290585) can0 1E3F000A#
(1779393569.292262) can0 1E42000B#0018180000000000
(1779393569.293384) can0 02000100#0000
(1779393569.295049) can0 1E3F000B#
(1779393569.296744) can0 1E42000C#0000000000000000
(1779393569.299453) can0 1E3F000C#
(1779393569.301130) can0 1E42000D#000000000000020A
(1779393569.303412) can0 02000100#0000
(1779393569.304388) can0 03C30F0F#87878787878787
(1779393569.304956) can0 1E3F000D#
(1779393569.306561) can0 1E42000E#0A0A020A0A0AFF00
(1779393569.309323) can0 1E3F000E#
(1779393569.310943) can0 1E42000F#00FF0000FF0000FF
(1779393569.313382) can0 02000100#0000
(1779393569.313949) can0 1E3F000F#
(1779393569.316164) can0 1E420010#0000FF0000FF0000
(1779393569.318891) can0 1E3F0010#
(1779393569.320528) can0 1E420011#FF0000FF0000FF00
(1779393569.323382) can0 02000100#0000
(1779393569.323950) can0 1E3F0011#
(1779393569.326125) can0 1E420012#00FF0000FF0000FF
(1779393569.327587) can0 00E#B68021AE00000000
(1779393569.329361) can0 1E3F0012#
(1779393569.330984) can0 1E420013#0000FF0000FF0000
(1779393569.333396) can0 02000100#0000
(1779393569.333974) can0 1E3F0013#
(1779393569.336129) can0 1E420014#FF0000FF0000FF00
(1779393569.338900) can0 1E3F0014#
(1779393569.340537) can0 1E420015#00FF0000FF0000FF
(1779393569.343213) can0 1E3F0015#
(1779393569.343949) can0 02000100#0000
(1779393569.345112) can0 1E420016#0000FF0000FF0000
(1779393569.345838) can0 140C0001#0000
(1779393569.347856) can0 1E3F0016#
(1779393569.349529) can0 1E420017#FF0000FF0000FF00
(1779393569.352241) can0 1E3F0017#
(1779393569.353386) can0 02000100#0000
(1779393569.354550) can0 1E420018#00FF0000FF0000FF
(1779393569.357454) can0 1E3F0018#
(1779393569.359125) can0 1E420019#0000FF0000FF0000
(1779393569.361952) can0 1E3F0019#
(1779393569.363562) can0 1E42001A#FF0000FF0000FF00
(1779393569.364301) can0 02000100#0000
(1779393569.366352) can0 1E3F001A#
(1779393569.373389) can0 02000100#0000
(1779393569.374550) can0 1E42001B#00FF0000FF0000FF
(1779393569.375220) can0 0C140000#C0
(1779393569.377631) can0 00E#B68021AE00000000
(1779393569.378183) can0 1E3F001B#
(1779393569.379098) can0 1E43001C#0000
(1779393569.381527) can0 1E3F001C#
(1779393569.382612) can0 790#8F8C000000000000
(1779393569.383417) can0 02000100#0000
(1779393569.386560) can0 78F#808C000000000000
(1779393569.393412) can0 02000100#0000
(1779393569.401821) can0 78F#2081000003000100
(1779393569.403406) can0 02000100#0000
(1779393569.404391) can0 03C30F0F#87878787878787
(1779393569.407522) can0 790#4F81000000000000
(1779393569.411604) can0 78F#2081000003000100
(1779393569.413386) can0 790#4F81000000000000
(1779393569.414117) can0 02000100#0000
(1779393569.417861) can0 78F#4088000004000001
(1779393569.419006) can0 790#2F88000003000100
(1779393569.423096) can0 78F#4089000002000001
(1779393569.423829) can0 02000100#0000
(1779393569.424818) can0 790#2F8900000A000000
(1779393569.427588) can0 00E#B68021AE00000000
(1779393569.429656) can0 78F#4086000004000001
(1779393569.430788) can0 790#2F86000022000000
(1779393569.433401) can0 02000100#0000
(1779393569.435422) can0 78F#408C000022000001
(1779393569.438397) can0 790#0F8C000022000000
(1779393569.439966) can0 1E420001#E1FF0100011CA4FF
(1779393569.442652) can0 1E3F0001#
(1779393569.443417) can0 02000100#0000
(1779393569.444584) can0 1E420002#0101000000010001
(1779393569.447370) can0 1E3F0002#
(1779393569.448958) can0 1E420003#0200000100000000
(1779393569.451811) can0 1E3F0003#
(1779393569.453497) can0 1E420004#0000000000000028
(1779393569.454234) can0 02000100#0000
(1779393569.456213) can0 1E3F0004#
(1779393569.457120) can0 1E430005#2A02
(1779393569.459535) can0 1E3F0005#
(1779393569.460611) can0 790#8F8C000000000000
(1779393569.463419) can0 02000100#0000
(1779393569.464396) can0 78F#808C000000000000
(1779393569.465286) can0 14300000#0000
(1779393569.473408) can0 02000100#0000
(1779393569.475202) can0 0C140000#C1
(1779393569.477641) can0 00E#B68021AE00000000
(1779393569.483412) can0 02000100#0000
(1779393569.493428) can0 02000100#0000
(1779393569.499047) can0 78F#2081000004000100
(1779393569.503436) can0 02000100#0000
(1779393569.504417) can0 03C30F0F#87878787878787
(1779393569.505381) can0 790#CF81000025000000
(1779393569.509703) can0 78F#2081000006000100
(1779393569.511610) can0 790#4F81000000000000
(1779393569.513425) can0 02000100#0000
(1779393569.516069) can0 78F#2081000006000100
(1779393569.518010) can0 790#4F81000000000000
(1779393569.522136) can0 78F#4088000004000001
(1779393569.523211) can0 790#2F88000006000100
(1779393569.523949) can0 02000100#0000
(1779393569.527604) can0 00E#B68021AE00000000
